Time Stamp,ID,Extended,Dir,Bus,LEN,D1,D2,D3,D4,D5,D6,D7,D8
82000,0000044D,false,Rx,0,8,40,02,00,00,00,00,FF,FF,
92000,00000157,false,Rx,0,8,C4,FF,00,00,00,00,00,00,
99000,0000012F,false,Rx,0,8,52,13,2F,0A,09,07,03,CF,
109000,00000506,false,Rx,0,8,00,00,02,3B,00,00,01,00,
118000,00000171,false,Rx,0,8,02,00,00,00,00,00,00,00,
122000,000001DF,false,Rx,0,8,00,00,00,00,00,20,A0,00,
129000,00000173,false,Rx,0,8,01,00,00,00,00,00,00,00,
139000,00000122,false,Rx,0,8,FF,F3,FF,FF,FC,00,00,00,
169000,00000115,false,Rx,0,8,08,00,00,2D,00,00,00,00,
179000,00000440,false,Rx,0,8,4D,02,00,00,00,00,FF,FF,
180000,00000114,false,Rx,0,8,08,60,00,01,00,00,00,00,
181000,00000123,false,Rx,0,8,00,00,00,00,00,00,00,00,
222000,00000169,false,Rx,0,8,40,00,00,00,00,00,00,00,
223000,0000016A,false,Rx,0,8,04,30,00,00,00,00,00,00,
224000,000001EB,false,Rx,0,8,01,00,00,00,00,00,00,00,
239000,000001E5,false,Rx,0,8,00,00,00,00,00,00,00,00,
259000,00000197,false,Rx,0,8,0F,2F,44,00,00,00,00,00,
271000,0000044D,false,Rx,0,8,40,02,00,00,00,00,FF,FF,
292000,00000157,false,Rx,0,8,C4,FF,00,00,00,00,00,00,
308000,00000506,false,Rx,0,8,00,00,02,3B,00,00,01,00,
318000,00000171,false,Rx,0,8,02,00,00,00,00,00,00,00,
321000,000001DF,false,Rx,0,8,00,00,00,00,00,20,A0,00,
328000,00000173,false,Rx,0,8,01,00,00,00,00,00,00,00,
338000,00000122,false,Rx,0,8,FF,F3,FF,FF,FC,00,00,00,
369000,00000440,false,Rx,0,8,4D,02,00,00,00,00,FF,FF,
370000,00000115,false,Rx,0,8,08,00,00,2D,00,00,00,00,
378000,00000114,false,Rx,0,8,08,60,00,01,00,00,00,00,
380000,00000123,false,Rx,0,8,00,00,00,00,00,00,00,00,
421000,00000169,false,Rx,0,8,40,00,00,00,00,00,00,00,
423000,0000016A,false,Rx,0,8,04,30,00,00,00,00,00,00,
424000,000001EB,false,Rx,0,8,01,00,00,00,00,00,00,00,
439000,000001E5,false,Rx,0,8,00,00,00,00,00,00,00,00,
463000,0000044D,false,Rx,0,8,40,02,00,00,00,00,FF,FF,
491000,00000157,false,Rx,0,8,C4,FF,00,00,00,00,00,00,
509000,00000506,false,Rx,0,8,00,00,02,3B,00,00,01,00,
519000,00000171,false,Rx,0,8,02,00,00,00,00,00,00,00,
521000,000001DF,false,Rx,0,8,00,00,00,00,00,20,A0,00,
529000,00000173,false,Rx,0,8,01,00,00,00,00,00,00,00,
539000,00000122,false,Rx,0,8,FF,F3,FF,FF,FC,00,00,00,
559000,00000440,false,Rx,0,8,4D,02,00,00,00,00,FF,FF,
568000,00000115,false,Rx,0,8,08,00,00,2D,00,00,00,00,
570000,0000012F,false,Rx,0,8,52,13,2F,0B,09,07,03,CF,
578000,00000114,false,Rx,0,8,08,60,00,01,00,00,00,00,
580000,00000123,false,Rx,0,8,00,00,00,00,00,00,00,00,
608000,0000012F,false,Rx,0,8,52,13,2F,0B,09,07,03,CF,
621000,00000169,false,Rx,0,8,40,00,00,00,00,00,00,00,
622000,0000016A,false,Rx,0,8,04,30,00,00,00,00,00,00,
624000,000001EB,false,Rx,0,8,01,00,00,00,00,00,00,00,
639000,000001E5,false,Rx,0,8,00,00,00,00,00,00,00,00,
649000,0000012F,false,Rx,0,8,52,13,2F,0B,09,07,03,CF,
652000,0000044D,false,Rx,0,8,40,02,00,00,00,00,FF,FF,
692000,00000157,false,Rx,0,8,C4,FF,00,00,00,00,00,00,
708000,00000506,false,Rx,0,8,00,00,02,3B,00,00,01,00,
719000,00000171,false,Rx,0,8,02,00,00,00,00,00,00,00,
722000,000001DF,false,Rx,0,8,00,00,00,00,00,20,A0,00,
729000,00000173,false,Rx,0,8,01,00,00,00,00,00,00,00,
738000,00000122,false,Rx,0,8,FF,F3,FF,FF,FC,00,00,00,
749000,00000440,false,Rx,0,8,4D,02,00,00,00,00,FF,FF,
769000,00000115,false,Rx,0,8,08,00,00,2D,00,00,00,00,
778000,00000114,false,Rx,0,8,08,60,00,01,00,00,00,00,
780000,00000123,false,Rx,0,8,00,00,00,00,00,00,00,00,
821000,00000169,false,Rx,0,8,40,00,00,00,00,00,00,00,
822000,0000016A,false,Rx,0,8,04,30,00,00,00,00,00,00,
824000,000001EB,false,Rx,0,8,01,00,00,00,00,00,00,00,
838000,000001E5,false,Rx,0,8,00,00,00,00,00,00,00,00,
841000,0000044D,false,Rx,0,8,40,02,00,00,00,00,FF,FF,
892000,00000157,false,Rx,0,8,C4,FF,00,00,00,00,00,00,
909000,00000506,false,Rx,0,8,00,00,02,3B,00,00,01,00,
919000,00000171,false,Rx,0,8,02,00,00,00,00,00,00,00,
922000,000001DF,false,Rx,0,8,00,00,00,00,00,20,A0,00,
929000,00000173,false,Rx,0,8,01,00,00,00,00,00,00,00,
939000,00000440,false,Rx,0,8,4D,02,00,00,00,00,FF,FF,
940000,00000122,false,Rx,0,8,FF,F3,FF,FF,FC,00,00,00,
969000,00000115,false,Rx,0,8,08,00,00,2D,00,00,00,00,
979000,00000114,false,Rx,0,8,08,60,00,01,00,00,00,00,
980000,00000123,false,Rx,0,8,00,00,00,00,00,00,00,00,
22000,00000169,false,Rx,0,8,40,00,00,00,00,00,00,00,
23000,0000016A,false,Rx,0,8,04,30,00,00,00,00,00,00,
23000,000001EB,false,Rx,0,8,01,00,00,00,00,00,00,00,
31000,0000044D,false,Rx,0,8,40,02,00,00,00,00,FF,FF,
38000,000001E5,false,Rx,0,8,00,00,00,00,00,00,00,00,
92000,00000157,false,Rx,0,8,C4,FF,00,00,00,00,00,00,
99000,0000012F,false,Rx,0,8,52,13,2F,0B,09,07,03,CF,
109000,00000506,false,Rx,0,8,00,00,02,3B,00,00,01,00,
119000,00000171,false,Rx,0,8,02,00,00,00,00,00,00,00,
122000,000001DF,false,Rx,0,8,00,00,00,00,00,20,A0,00,
128000,00000440,false,Rx,0,8,4D,02,00,00,00,00,FF,FF,
130000,00000173,false,Rx,0,8,01,00,00,00,00,00,00,00,
139000,00000122,false,Rx,0,8,FF,F3,FF,FF,FC,00,00,00,
168000,00000115,false,Rx,0,8,08,00,00,2D,00,00,00,00,
178000,00000114,false,Rx,0,8,08,60,00,01,00,00,00,00,
179000,00000123,false,Rx,0,8,00,00,00,00,00,00,00,00,
208000,00000100,false,Rx,0,8,62,00,00,04,00,00,00,00,
222000,0000044D,false,Rx,0,8,40,02,00,00,00,00,FF,FF,
223000,00000169,false,Rx,0,8,40,00,00,00,00,00,00,00,
224000,0000016A,false,Rx,0,8,04,30,00,00,00,00,00,00,
225000,000001EB,false,Rx,0,8,01,00,00,00,00,00,00,00,
238000,000001E5,false,Rx,0,8,00,00,00,00,00,00,00,00,
259000,00000197,false,Rx,0,8,0F,2F,44,00,00,00,00,00,
291000,00000157,false,Rx,0,8,C4,FF,00,00,00,00,00,00,
308000,00000506,false,Rx,0,8,00,00,02,3B,00,00,01,00,
319000,00000440,false,Rx,0,8,4D,02,00,00,00,00,FF,FF,
320000,00000171,false,Rx,0,8,02,00,00,00,00,00,00,00,
322000,000001DF,false,Rx,0,8,00,00,00,00,00,20,A0,00,
329000,00000173,false,Rx,0,8,01,00,00,00,00,00,00,00,
339000,00000122,false,Rx,0,8,FF,F3,FF,FF,FC,00,00,00,
369000,00000115,false,Rx,0,8,08,00,00,2D,00,00,00,00,
379000,00000114,false,Rx,0,8,08,60,00,01,00,00,00,00,
380000,00000123,false,Rx,0,8,00,00,00,00,00,00,00,00,
413000,0000044D,false,Rx,0,8,40,02,00,00,00,00,FF,FF,
422000,00000169,false,Rx,0,8,40,00,00,00,00,00,00,00,
423000,0000016A,false,Rx,0,8,04,30,00,00,00,00,00,00,
424000,000001EB,false,Rx,0,8,01,00,00,00,00,00,00,00,
439000,000001E5,false,Rx,0,8,00,00,00,00,00,00,00,00,
492000,00000157,false,Rx,0,8,C4,FF,00,00,00,00,00,00,
509000,00000440,false,Rx,0,8,4D,02,00,00,00,00,FF,FF,
510000,00000506,false,Rx,0,8,00,00,02,3B,00,00,01,00,
519000,00000171,false,Rx,0,8,02,00,00,00,00,00,00,00,
521000,000001DF,false,Rx,0,8,00,00,00,00,00,20,A0,00,
529000,00000173,false,Rx,0,8,01,00,00,00,00,00,00,00,
539000,00000122,false,Rx,0,8,FF,F3,FF,FF,FC,00,00,00,
569000,00000115,false,Rx,0,8,08,00,00,2D,00,00,00,00,
570000,0000012F,false,Rx,0,8,52,13,2F,0C,09,07,03,CF,
579000,00000114,false,Rx,0,8,08,60,00,01,00,00,00,00,
580000,00000123,false,Rx,0,8,00,00,00,00,00,00,00,00,
601000,0000044D,false,Rx,0,8,40,02,00,00,00,00,FF,FF,
609000,0000012F,false,Rx,0,8,52,13,2F,0C,09,07,03,CF,
621000,00000169,false,Rx,0,8,40,00,00,00,00,00,00,00,
623000,0000016A,false,Rx,0,8,04,30,00,00,00,00,00,00,
624000,000001EB,false,Rx,0,8,01,00,00,00,00,00,00,00,
638000,000001E5,false,Rx,0,8,00,00,00,00,00,00,00,00,
648000,0000012F,false,Rx,0,8,52,13,2F,0C,09,07,03,CF,
691000,00000157,false,Rx,0,8,C4,FF,00,00,00,00,00,00,
698000,00000440,false,Rx,0,8,4D,02,00,00,00,00,FF,FF,
709000,00000506,false,Rx,0,8,00,00,02,3B,00,00,01,00,
719000,00000171,false,Rx,0,8,02,00,00,00,00,00,00,00,
722000,000001DF,false,Rx,0,8,00,00,00,00,00,20,A0,00,
729000,00000173,false,Rx,0,8,01,00,00,00,00,00,00,00,
739000,00000122,false,Rx,0,8,FF,F3,FF,FF,FC,00,00,00,
769000,00000115,false,Rx,0,8,08,00,00,2D,00,00,00,00,
779000,00000114,false,Rx,0,8,08,60,00,01,00,00,00,00,
780000,00000123,false,Rx,0,8,00,00,00,00,00,00,00,00,
791000,0000044D,false,Rx,0,8,40,02,00,00,00,00,FF,FF,
822000,00000169,false,Rx,0,8,40,00,00,00,00,00,00,00,
822000,0000016A,false,Rx,0,8,04,30,00,00,00,00,00,00,
824000,000001EB,false,Rx,0,8,01,00,00,00,00,00,00,00,
839000,000001E5,false,Rx,0,8,00,00,00,00,00,00,00,00,
889000,00000440,false,Rx,0,8,4D,02,00,00,00,00,FF,FF,
891000,00000157,false,Rx,0,8,C4,FF,00,00,00,00,00,00,
909000,00000506,false,Rx,0,8,00,00,02,3B,00,00,01,00,
919000,00000171,false,Rx,0,8,02,00,00,00,00,00,00,00,
921000,000001DF,false,Rx,0,8,00,00,00,00,00,20,A0,00,
929000,00000173,false,Rx,0,8,01,00,00,00,00,00,00,00,
939000,00000122,false,Rx,0,8,FF,F3,FF,FF,FC,00,00,00,
969000,00000115,false,Rx,0,8,08,00,00,2D,00,00,00,00,
978000,00000114,false,Rx,0,8,08,60,00,01,00,00,00,00,
980000,00000123,false,Rx,0,8,00,00,00,00,00,00,00,00,
981000,0000044D,false,Rx,0,8,40,02,00,00,00,00,FF,FF,
22000,00000169,false,Rx,0,8,40,00,00,00,00,00,00,00,
23000,0000016A,false,Rx,0,8,04,30,00,00,00,00,00,00,
24000,000001EB,false,Rx,0,8,01,00,00,00,00,00,00,00,
39000,000001E5,false,Rx,0,8,00,00,00,00,00,00,00,00,
79000,00000440,false,Rx,0,8,4D,02,00,00,00,00,FF,FF,
91000,00000157,false,Rx,0,8,C4,FF,00,00,00,00,00,00,
99000,0000012F,false,Rx,0,8,52,13,2F,0C,09,07,03,CF,
109000,00000506,false,Rx,0,8,00,00,02,3B,00,00,01,00,
119000,00000171,false,Rx,0,8,02,00,00,00,00,00,00,00,
121000,000001DF,false,Rx,0,8,00,00,00,00,00,20,A0,00,
129000,00000173,false,Rx,0,8,01,00,00,00,00,00,00,00,
139000,00000122,false,Rx,0,8,FF,F3,FF,FF,FC,00,00,00,
168000,00000115,false,Rx,0,8,08,00,00,2D,00,00,00,00,
171000,0000044D,false,Rx,0,8,40,02,00,00,00,00,FF,FF,
178000,00000114,false,Rx,0,8,08,60,00,01,00,00,00,00,
180000,00000123,false,Rx,0,8,00,00,00,00,00,00,00,00,
222000,00000169,false,Rx,0,8,40,00,00,00,00,00,00,00,
223000,0000016A,false,Rx,0,8,04,30,00,00,00,00,00,00,
224000,000001EB,false,Rx,0,8,01,00,00,00,00,00,00,00,
239000,000001E5,false,Rx,0,8,00,00,00,00,00,00,00,00,
259000,00000197,false,Rx,0,8,0F,2F,44,00,00,00,00,00,
269000,00000440,false,Rx,0,8,4D,02,00,00,00,00,FF,FF,
292000,00000157,false,Rx,0,8,C4,FF,00,00,00,00,00,00,
309000,00000506,false,Rx,0,8,00,00,02,3B,00,00,01,00,
319000,00000171,false,Rx,0,8,02,00,00,00,00,00,00,00,
322000,000001DF,false,Rx,0,8,00,00,00,00,00,20,A0,00,
329000,00000173,false,Rx,0,8,01,00,00,00,00,00,00,00,
339000,00000122,false,Rx,0,8,FF,F3,FF,FF,FC,00,00,00,
363000,0000044D,false,Rx,0,8,40,02,00,00,00,00,FF,FF,
369000,00000115,false,Rx,0,8,08,00,00,2D,00,00,00,00,
379000,00000114,false,Rx,0,8,08,60,00,01,00,00,00,00,
380000,00000123,false,Rx,0,8,00,00,00,00,00,00,00,00,
421000,00000169,false,Rx,0,8,40,00,00,00,00,00,00,00,
422000,0000016A,false,Rx,0,8,04,30,00,00,00,00,00,00,
424000,000001EB,false,Rx,0,8,01,00,00,00,00,00,00,00,
439000,000001E5,false,Rx,0,8,00,00,00,00,00,00,00,00,
459000,00000440,false,Rx,0,8,4D,02,00,00,00,00,FF,FF,
492000,00000157,false,Rx,0,8,C4,FF,00,00,00,00,00,00,
508000,00000506,false,Rx,0,8,00,00,02,3B,00,00,01,00,
519000,00000171,false,Rx,0,8,02,00,00,00,00,00,00,00,
522000,000001DF,false,Rx,0,8,00,00,00,00,00,20,A0,00,
529000,00000173,false,Rx,0,8,01,00,00,00,00,00,00,00,
539000,00000122,false,Rx,0,8,FF,F3,FF,FF,FC,00,00,00,
552000,0000044D,false,Rx,0,8,40,02,00,00,00,00,FF,FF,
568000,00000115,false,Rx,0,8,08,00,00,2D,00,00,00,00,
578000,00000114,false,Rx,0,8,08,60,00,01,00,00,00,00,
580000,00000123,false,Rx,0,8,00,00,00,00,00,00,00,00,
581000,0000012F,false,Rx,0,8,52,13,2F,0D,09,07,03,CF,
619000,0000012F,false,Rx,0,8,52,13,2F,0D,09,07,03,CF,
622000,00000169,false,Rx,0,8,40,00,00,00,00,00,00,00,
623000,0000016A,false,Rx,0,8,04,30,00,00,00,00,00,00,
624000,000001EB,false,Rx,0,8,01,00,00,00,00,00,00,00,
639000,000001E5,false,Rx,0,8,00,00,00,00,00,00,00,00,
649000,00000440,false,Rx,0,8,4D,02,00,00,00,00,FF,FF,
658000,0000012F,false,Rx,0,8,52,13,2F,0D,09,07,03,CF,
691000,00000157,false,Rx,0,8,C4,FF,00,00,00,00,00,00,
709000,00000506,false,Rx,0,8,00,00,02,3B,00,00,01,00,
719000,00000171,false,Rx,0,8,02,00,00,00,00,00,00,00,
722000,000001DF,false,Rx,0,8,00,00,00,00,00,20,A0,00,
729000,00000173,false,Rx,0,8,01,00,00,00,00,00,00,00,
739000,00000122,false,Rx,0,8,FF,F3,FF,FF,FC,00,00,00,
741000,0000044D,false,Rx,0,8,40,02,00,00,00,00,FF,FF,
769000,00000115,false,Rx,0,8,08,00,00,2D,00,00,00,00,
778000,00000114,false,Rx,0,8,08,60,00,01,00,00,00,00,
779000,00000123,false,Rx,0,8,00,00,00,00,00,00,00,00,
822000,00000169,false,Rx,0,8,40,00,00,00,00,00,00,00,
823000,0000016A,false,Rx,0,8,04,30,00,00,00,00,00,00,
824000,000001EB,false,Rx,0,8,01,00,00,00,00,00,00,00,
839000,00000440,false,Rx,0,8,4D,02,00,00,00,00,FF,FF,
840000,000001E5,false,Rx,0,8,00,00,00,00,00,00,00,00,
891000,00000157,false,Rx,0,8,C4,FF,00,00,00,00,00,00,
908000,00000506,false,Rx,0,8,00,00,02,3B,00,00,01,00,
918000,00000171,false,Rx,0,8,02,00,00,00,00,00,00,00,
921000,000001DF,false,Rx,0,8,00,00,00,00,00,20,A0,00,
928000,00000173,false,Rx,0,8,01,00,00,00,00,00,00,00,
931000,0000044D,false,Rx,0,8,40,02,00,00,00,00,FF,FF,
938000,00000122,false,Rx,0,8,FF,F3,FF,FF,FC,00,00,00,
968000,00000115,false,Rx,0,8,08,00,00,2D,00,00,00,00,
979000,00000114,false,Rx,0,8,08,60,00,01,00,00,00,00,
980000,00000123,false,Rx,0,8,00,00,00,00,00,00,00,00,
21000,00000169,false,Rx,0,8,40,00,00,00,00,00,00,00,
23000,0000016A,false,Rx,0,8,04,30,00,00,00,00,00,00,
24000,000001EB,false,Rx,0,8,01,00,00,00,00,00,00,00,
28000,00000440,false,Rx,0,8,4D,02,00,00,00,00,FF,FF,
39000,000001E5,false,Rx,0,8,00,00,00,00,00,00,00,00,
91000,00000157,false,Rx,0,8,C4,FF,00,00,00,00,00,00,
98000,0000012F,false,Rx,0,8,52,13,2F,0D,09,07,03,CF,
108000,00000506,false,Rx,0,8,00,00,02,3B,00,00,01,00,
118000,00000171,false,Rx,0,8,02,00,00,00,00,00,00,00,
121000,0000044D,false,Rx,0,8,40,02,00,00,00,00,FF,FF,
122000,000001DF,false,Rx,0,8,00,00,00,00,00,20,A0,00,
129000,00000173,false,Rx,0,8,01,00,00,00,00,00,00,00,
139000,00000122,false,Rx,0,8,FF,F3,FF,FF,FC,00,00,00,
169000,00000115,false,Rx,0,8,08,00,00,2D,00,00,00,00,
179000,00000114,false,Rx,0,8,08,60,00,01,00,00,00,00,
180000,00000123,false,Rx,0,8,00,00,00,00,00,00,00,00,
209000,00000100,false,Rx,0,8,62,00,00,04,00,00,00,00,
218000,00000440,false,Rx,0,8,4D,02,00,00,00,00,FF,FF,
221000,00000169,false,Rx,0,8,40,00,00,00,00,00,00,00,
222000,0000016A,false,Rx,0,8,04,30,00,00,00,00,00,00,
224000,000001EB,false,Rx,0,8,01,00,00,00,00,00,00,00,
238000,000001E5,false,Rx,0,8,00,00,00,00,00,00,00,00,
258000,00000197,false,Rx,0,8,0F,2F,44,00,00,00,00,00,
291000,00000157,false,Rx,0,8,C4,FF,00,00,00,00,00,00,
309000,00000506,false,Rx,0,8,00,00,02,3B,00,00,01,00,
313000,0000044D,false,Rx,0,8,40,02,00,00,00,00,FF,FF,
319000,00000171,false,Rx,0,8,02,00,00,00,00,00,00,00,
321000,000001DF,false,Rx,0,8,00,00,00,00,00,20,A0,00,
329000,00000173,false,Rx,0,8,01,00,00,00,00,00,00,00,
339000,00000122,false,Rx,0,8,FF,F3,FF,FF,FC,00,00,00,
369000,00000115,false,Rx,0,8,08,00,00,2D,00,00,00,00,
379000,00000114,false,Rx,0,8,08,60,00,01,00,00,00,00,
380000,00000123,false,Rx,0,8,00,00,00,00,00,00,00,00,
409000,00000440,false,Rx,0,8,4D,02,00,00,00,00,FF,FF,
422000,00000169,false,Rx,0,8,40,00,00,00,00,00,00,00,
423000,0000016A,false,Rx,0,8,04,30,00,00,00,00,00,00,
424000,000001EB,false,Rx,0,8,01,00,00,00,00,00,00,00,
438000,000001E5,false,Rx,0,8,00,00,00,00,00,00,00,00,
492000,00000157,false,Rx,0,8,C4,FF,00,00,00,00,00,00,
502000,0000044D,false,Rx,0,8,40,02,00,00,00,00,FF,FF,
508000,00000506,false,Rx,0,8,00,00,02,3B,00,00,01,00,
518000,00000171,false,Rx,0,8,02,00,00,00,00,00,00,00,
521000,000001DF,false,Rx,0,8,00,00,00,00,00,20,A0,00,
528000,00000173,false,Rx,0,8,01,00,00,00,00,00,00,00,
539000,00000122,false,Rx,0,8,FF,F3,FF,FF,FC,00,00,00,
569000,00000115,false,Rx,0,8,08,00,00,2D,00,00,00,00,
579000,00000114,false,Rx,0,8,08,60,00,01,00,00,00,00,
580000,00000123,false,Rx,0,8,00,00,00,00,00,00,00,00,
581000,0000012F,false,Rx,0,8,52,13,2F,0E,09,07,03,CF,
599000,00000440,false,Rx,0,8,4D,02,00,00,00,00,FF,FF,
619000,0000012F,false,Rx,0,8,52,13,2F,0E,09,07,03,CF,
621000,00000169,false,Rx,0,8,40,00,00,00,00,00,00,00,
623000,0000016A,false,Rx,0,8,04,30,00,00,00,00,00,00,
624000,000001EB,false,Rx,0,8,01,00,00,00,00,00,00,00,
639000,000001E5,false,Rx,0,8,00,00,00,00,00,00,00,00,
658000,0000012F,false,Rx,0,8,52,13,2F,0E,09,07,03,CF,
691000,0000044D,false,Rx,0,8,40,02,00,00,00,00,FF,FF,
692000,00000157,false,Rx,0,8,C4,FF,00,00,00,00,00,00,
708000,00000506,false,Rx,0,8,00,00,02,3B,00,00,01,00,
718000,00000171,false,Rx,0,8,02,00,00,00,00,00,00,00,
722000,000001DF,false,Rx,0,8,00,00,00,00,00,20,A0,00,
729000,00000173,false,Rx,0,8,01,00,00,00,00,00,00,00,
738000,00000122,false,Rx,0,8,FF,F3,FF,FF,FC,00,00,00,
768000,00000115,false,Rx,0,8,08,00,00,2D,00,00,00,00,
779000,00000114,false,Rx,0,8,08,60,00,01,00,00,00,00,
780000,00000123,false,Rx,0,8,00,00,00,00,00,00,00,00,
788000,00000440,false,Rx,0,8,4D,02,00,00,00,00,FF,FF,
821000,00000169,false,Rx,0,8,40,00,00,00,00,00,00,00,
823000,0000016A,false,Rx,0,8,04,30,00,00,00,00,00,00,
824000,000001EB,false,Rx,0,8,01,00,00,00,00,00,00,00,
839000,000001E5,false,Rx,0,8,00,00,00,00,00,00,00,00,
881000,0000044D,false,Rx,0,8,40,02,00,00,00,00,FF,FF,
892000,00000157,false,Rx,0,8,C4,FF,00,00,00,00,00,00,
909000,00000506,false,Rx,0,8,00,00,02,3B,00,00,01,00,
918000,00000171,false,Rx,0,8,02,00,00,00,00,00,00,00,
921000,000001DF,false,Rx,0,8,00,00,00,00,00,20,A0,00,
928000,00000173,false,Rx,0,8,01,00,00,00,00,00,00,00,
939000,00000122,false,Rx,0,8,FF,F3,FF,FF,FC,00,00,00,
969000,00000115,false,Rx,0,8,08,00,00,2D,00,00,00,00,
979000,00000440,false,Rx,0,8,4D,02,00,00,00,00,FF,FF,
980000,00000114,false,Rx,0,8,08,60,00,01,00,00,00,00,
981000,00000123,false,Rx,0,8,00,00,00,00,00,00,00,00,
21000,00000169,false,Rx,0,8,40,00,00,00,00,00,00,00,
22000,0000016A,false,Rx,0,8,04,30,00,00,00,00,00,00,
24000,000001EB,false,Rx,0,8,01,00,00,00,00,00,00,00,
38000,000001E5,false,Rx,0,8,00,00,00,00,00,00,00,00,
71000,0000044D,false,Rx,0,8,40,02,00,00,00,00,FF,FF,
91000,00000157,false,Rx,0,8,C4,FF,00,00,00,00,00,00,
99000,0000012F,false,Rx,0,8,52,13,2F,0E,09,07,03,CF,
109000,00000506,false,Rx,0,8,00,00,02,3B,00,00,01,00,
119000,00000171,false,Rx,0,8,02,00,00,00,00,00,00,00,
122000,000001DF,false,Rx,0,8,00,00,00,00,00,20,A0,00,
128000,00000173,false,Rx,0,8,01,00,00,00,00,00,00,00,
139000,00000122,false,Rx,0,8,FF,F3,FF,FF,FC,00,00,00,
169000,00000440,false,Rx,0,8,4D,02,00,00,00,00,FF,FF,
170000,00000115,false,Rx,0,8,08,00,00,2D,00,00,00,00,
179000,00000114,false,Rx,0,8,08,60,00,01,00,00,00,00,
180000,00000123,false,Rx,0,8,00,00,00,00,00,00,00,00,
222000,00000169,false,Rx,0,8,40,00,00,00,00,00,00,00,
223000,0000016A,false,Rx,0,8,04,30,00,00,00,00,00,00,
224000,000001EB,false,Rx,0,8,01,00,00,00,00,00,00,00,
239000,000001E5,false,Rx,0,8,00,00,00,00,00,00,00,00,
258000,00000197,false,Rx,0,8,0F,2F,44,00,00,00,00,00,
263000,0000044D,false,Rx,0,8,40,02,00,00,00,00,FF,FF,
291000,00000157,false,Rx,0,8,C4,FF,00,00,00,00,00,00,
308000,00000506,false,Rx,0,8,00,00,02,3B,00,00,01,00,
318000,00000171,false,Rx,0,8,02,00,00,00,00,00,00,00,
321000,000001DF,false,Rx,0,8,00,00,00,00,00,20,A0,00,
328000,00000173,false,Rx,0,8,01,00,00,00,00,00,00,00,
338000,00000122,false,Rx,0,8,FF,F3,FF,FF,FC,00,00,00,
359000,00000440,false,Rx,0,8,4D,02,00,00,00,00,FF,FF,
368000,00000115,false,Rx,0,8,08,00,00,2D,00,00,00,00,
379000,00000114,false,Rx,0,8,08,60,00,01,00,00,00,00,
380000,00000123,false,Rx,0,8,00,00,00,00,00,00,00,00,
421000,00000169,false,Rx,0,8,40,00,00,00,00,00,00,00,
423000,0000016A,false,Rx,0,8,04,30,00,00,00,00,00,00,
424000,000001EB,false,Rx,0,8,01,00,00,00,00,00,00,00,
439000,000001E5,false,Rx,0,8,00,00,00,00,00,00,00,00,
451000,0000044D,false,Rx,0,8,40,02,00,00,00,00,FF,FF,
492000,00000157,false,Rx,0,8,C4,FF,00,00,00,00,00,00,
509000,00000506,false,Rx,0,8,00,00,02,3B,00,00,01,00,
519000,00000171,false,Rx,0,8,02,00,00,00,00,00,00,00,
521000,000001DF,false,Rx,0,8,00,00,00,00,00,20,A0,00,
529000,00000173,false,Rx,0,8,01,00,00,00,00,00,00,00,
538000,00000122,false,Rx,0,8,FF,F3,FF,FF,FC,00,00,00,
548000,00000440,false,Rx,0,8,4D,02,00,00,00,00,FF,FF,
568000,00000115,false,Rx,0,8,08,00,00,2D,00,00,00,00,
579000,00000114,false,Rx,0,8,08,60,00,01,00,00,00,00,
580000,00000123,false,Rx,0,8,00,00,00,00,00,00,00,00,
581000,0000012F,false,Rx,0,8,52,13,2F,0F,09,07,03,CF,
618000,0000012F,false,Rx,0,8,52,13,2F,0F,09,07,03,CF,
622000,00000169,false,Rx,0,8,40,00,00,00,00,00,00,00,
623000,0000016A,false,Rx,0,8,04,30,00,00,00,00,00,00,
623000,000001EB,false,Rx,0,8,01,00,00,00,00,00,00,00,
639000,000001E5,false,Rx,0,8,00,00,00,00,00,00,00,00,
641000,0000044D,false,Rx,0,8,40,02,00,00,00,00,FF,FF,
659000,0000012F,false,Rx,0,8,52,13,2F,0F,09,07,03,CF,
692000,00000157,false,Rx,0,8,C4,FF,00,00,00,00,00,00,
708000,00000506,false,Rx,0,8,00,00,02,3B,00,00,01,00,
719000,00000171,false,Rx,0,8,02,00,00,00,00,00,00,00,
722000,000001DF,false,Rx,0,8,00,00,00,00,00,20,A0,00,
728000,00000173,false,Rx,0,8,01,00,00,00,00,00,00,00,
738000,00000440,false,Rx,0,8,4D,02,00,00,00,00,FF,FF,
739000,00000122,false,Rx,0,8,FF,F3,FF,FF,FC,00,00,00,
769000,00000115,false,Rx,0,8,08,00,00,2D,00,00,00,00,
778000,00000114,false,Rx,0,8,08,60,00,01,00,00,00,00,
780000,00000123,false,Rx,0,8,00,00,00,00,00,00,00,00,
821000,00000169,false,Rx,0,8,40,00,00,00,00,00,00,00,
823000,0000016A,false,Rx,0,8,04,30,00,00,00,00,00,00,
824000,000001EB,false,Rx,0,8,01,00,00,00,00,00,00,00,
831000,0000044D,false,Rx,0,8,40,02,00,00,00,00,FF,FF,
839000,000001E5,false,Rx,0,8,00,00,00,00,00,00,00,00,
892000,00000157,false,Rx,0,8,C4,FF,00,00,00,00,00,00,
909000,00000506,false,Rx,0,8,00,00,02,3B,00,00,01,00,
919000,00000171,false,Rx,0,8,02,00,00,00,00,00,00,00,
922000,000001DF,false,Rx,0,8,00,00,00,00,00,20,A0,00,
929000,00000440,false,Rx,0,8,4D,02,00,00,00,00,FF,FF,
930000,00000173,false,Rx,0,8,01,00,00,00,00,00,00,00,
939000,00000122,false,Rx,0,8,FF,F3,FF,FF,FC,00,00,00,
969000,00000115,false,Rx,0,8,08,00,00,2D,00,00,00,00,
979000,00000114,false,Rx,0,8,08,60,00,01,00,00,00,00,
980000,00000123,false,Rx,0,8,00,00,00,00,00,00,00,00,
21000,0000044D,false,Rx,0,8,40,02,00,00,00,00,FF,FF,
23000,00000169,false,Rx,0,8,40,00,00,00,00,00,00,00,
24000,0000016A,false,Rx,0,8,04,30,00,00,00,00,00,00,
25000,000001EB,false,Rx,0,8,01,00,00,00,00,00,00,00,
39000,000001E5,false,Rx,0,8,00,00,00,00,00,00,00,00,
91000,00000157,false,Rx,0,8,C4,FF,00,00,00,00,00,00,
98000,0000012F,false,Rx,0,8,52,13,2F,0F,09,07,03,CF,
108000,00000506,false,Rx,0,8,00,00,02,3B,00,00,01,00,
118000,00000440,false,Rx,0,8,4D,02,00,00,00,00,FF,FF,
119000,00000171,false,Rx,0,8,02,00,00,00,00,00,00,00,
121000,000001DF,false,Rx,0,8,00,00,00,00,00,20,A0,00,
128000,00000173,false,Rx,0,8,01,00,00,00,00,00,00,00,
138000,00000122,false,Rx,0,8,FF,F3,FF,FF,FC,00,00,00,
169000,00000115,false,Rx,0,8,08,00,00,2D,00,00,00,00,
178000,00000114,false,Rx,0,8,08,60,00,01,00,00,00,00,
179000,00000123,false,Rx,0,8,00,00,00,00,00,00,00,00,
208000,00000100,false,Rx,0,8,62,00,00,04,00,00,00,00,
212000,0000044D,false,Rx,0,8,40,02,00,00,00,00,FF,FF,
222000,00000169,false,Rx,0,8,40,00,00,00,00,00,00,00,
223000,0000016A,false,Rx,0,8,04,30,00,00,00,00,00,00,
224000,000001EB,false,Rx,0,8,01,00,00,00,00,00,00,00,
239000,000001E5,false,Rx,0,8,00,00,00,00,00,00,00,00,
258000,00000197,false,Rx,0,8,0F,2F,44,00,00,00,00,00,
292000,00000157,false,Rx,0,8,C4,FF,00,00,00,00,00,00,
309000,00000440,false,Rx,0,8,4D,02,00,00,00,00,FF,FF,
310000,00000506,false,Rx,0,8,00,00,02,3B,00,00,01,00,
319000,00000171,false,Rx,0,8,02,00,00,00,00,00,00,00,
322000,000001DF,false,Rx,0,8,00,00,00,00,00,20,A0,00,
329000,00000173,false,Rx,0,8,01,00,00,00,00,00,00,00,
338000,00000122,false,Rx,0,8,FF,F3,FF,FF,FC,00,00,00,
369000,00000115,false,Rx,0,8,08,00,00,2D,00,00,00,00,
379000,00000114,false,Rx,0,8,08,60,00,01,00,00,00,00,
380000,00000123,false,Rx,0,8,00,00,00,00,00,00,00,00,
401000,0000044D,false,Rx,0,8,40,02,00,00,00,00,FF,FF,
414000,00000485,false,Rx,0,8,03,03,00,00,00,00,00,00,
422000,00000169,false,Rx,0,8,40,00,00,00,00,00,00,00,
422000,0000016A,false,Rx,0,8,04,30,00,00,00,00,00,00,
424000,000001EB,false,Rx,0,8,01,00,00,00,00,00,00,00,
438000,000001E5,false,Rx,0,8,00,00,00,00,00,00,00,00,
491000,00000157,false,Rx,0,8,C4,FF,00,00,00,00,00,00,
498000,00000440,false,Rx,0,8,4D,02,00,00,00,00,FF,FF,
499000,00000197,false,Rx,0,8,0F,1F,44,00,00,00,00,00,
509000,00000506,false,Rx,0,8,00,00,02,3B,00,00,01,00,
519000,00000171,false,Rx,0,8,02,00,00,00,00,00,00,00,
521000,000001DF,false,Rx,0,8,00,00,00,00,00,20,A0,00,
528000,00000173,false,Rx,0,8,01,00,00,00,00,00,00,00,
539000,00000122,false,Rx,0,8,FF,F3,FF,FF,FC,00,00,00,
540000,00000197,false,Rx,0,8,0F,1F,44,00,00,00,00,00,
569000,00000114,false,Rx,0,8,14,60,00,01,00,00,01,00,
570000,00000115,false,Rx,0,8,08,00,00,2D,00,00,00,00,
578000,00000123,false,Rx,0,8,00,00,00,00,00,00,00,00,
579000,00000197,false,Rx,0,8,0F,1F,44,00,00,00,00,00,
591000,0000044D,false,Rx,0,8,40,02,00,00,00,00,FF,FF,
609000,00000114,false,Rx,0,8,14,60,00,01,00,00,01,00,
618000,0000012F,false,Rx,0,8,52,13,2F,10,09,07,03,CF,
621000,00000169,false,Rx,0,8,40,00,00,00,00,00,00,00,
622000,0000016A,false,Rx,0,8,04,30,00,00,00,00,00,00,
623000,000001EB,false,Rx,0,8,01,00,00,00,00,00,00,00,
639000,000001E5,false,Rx,0,8,00,00,00,00,00,00,00,00,
648000,00000114,false,Rx,0,8,14,60,00,01,00,00,01,00,
658000,0000012F,false,Rx,0,8,52,13,2F,10,09,07,03,CF,
688000,00000440,false,Rx,0,8,4D,02,00,00,00,00,FF,FF,
691000,00000157,false,Rx,0,8,C4,FF,00,00,00,00,00,00,
699000,0000012F,false,Rx,0,8,52,13,2F,10,09,07,03,CF,
708000,00000506,false,Rx,0,8,00,00,02,3B,00,00,01,00,
718000,00000171,false,Rx,0,8,02,00,00,00,00,00,00,00,
721000,000001DF,false,Rx,0,8,00,00,00,00,00,20,A0,00,
728000,00000173,false,Rx,0,8,01,00,00,00,00,00,00,00,
738000,00000122,false,Rx,0,8,FF,F3,FF,FF,FC,00,00,00,
769000,00000115,false,Rx,0,8,08,00,00,2D,00,00,00,00,
778000,00000114,false,Rx,0,8,14,60,00,01,00,00,01,00,
780000,00000123,false,Rx,0,8,00,00,00,00,00,00,00,00,
782000,0000044D,false,Rx,0,8,40,02,00,00,00,00,FF,FF,
822000,00000169,false,Rx,0,8,40,00,00,00,00,00,00,00,
823000,0000016A,false,Rx,0,8,04,30,00,00,00,00,00,00,
824000,000001EB,false,Rx,0,8,01,00,00,00,00,00,00,00,
839000,000001E5,false,Rx,0,8,00,00,00,00,00,00,00,00,
879000,00000440,false,Rx,0,8,4D,02,00,00,00,00,FF,FF,
891000,00000157,false,Rx,0,8,C4,FF,00,00,00,00,00,00,
908000,00000506,false,Rx,0,8,00,00,02,3B,00,00,01,00,
918000,00000171,false,Rx,0,8,02,00,00,00,00,00,00,00,
921000,000001DF,false,Rx,0,8,00,00,00,00,00,20,A0,00,
929000,00000173,false,Rx,0,8,01,00,00,00,00,00,00,00,
939000,00000122,false,Rx,0,8,FF,F3,FF,FF,FC,00,00,00,
968000,00000115,false,Rx,0,8,08,00,00,2D,00,00,00,00,
971000,0000044D,false,Rx,0,8,40,02,00,00,00,00,FF,FF,
979000,00000114,false,Rx,0,8,14,60,00,01,00,00,01,00,
980000,00000123,false,Rx,0,8,00,00,00,00,00,00,00,00,
21000,00000169,false,Rx,0,8,40,00,00,00,00,00,00,00,
22000,0000016A,false,Rx,0,8,04,30,00,00,00,00,00,00,
24000,000001EB,false,Rx,0,8,01,00,00,00,00,00,00,00,
38000,000001E5,false,Rx,0,8,00,00,00,00,00,00,00,00,
68000,00000440,false,Rx,0,8,4D,02,00,00,00,00,FF,FF,
92000,00000157,false,Rx,0,8,C4,FF,00,00,00,00,00,00,
99000,0000012F,false,Rx,0,8,52,13,2F,10,09,07,03,CF,
109000,00000506,false,Rx,0,8,00,00,02,3B,00,00,01,00,
119000,00000171,false,Rx,0,8,02,00,00,00,00,00,00,00,
121000,000001DF,false,Rx,0,8,00,00,00,00,00,20,A0,00,
129000,00000173,false,Rx,0,8,01,00,00,00,00,00,00,00,
139000,00000122,false,Rx,0,8,FF,F3,FF,FF,FC,00,00,00,
163000,0000044D,false,Rx,0,8,40,02,00,00,00,00,FF,FF,
169000,00000115,false,Rx,0,8,08,00,00,2D,00,00,00,00,
178000,00000114,false,Rx,0,8,14,60,00,01,00,00,01,00,
179000,00000123,false,Rx,0,8,00,00,00,00,00,00,00,00,
222000,00000169,false,Rx,0,8,40,00,00,00,00,00,00,00,
223000,0000016A,false,Rx,0,8,04,30,00,00,00,00,00,00,
224000,000001EB,false,Rx,0,8,01,00,00,00,00,00,00,00,
239000,000001E5,false,Rx,0,8,00,00,00,00,00,00,00,00,
258000,00000440,false,Rx,0,8,4D,02,00,00,00,00,FF,FF,
259000,00000197,false,Rx,0,8,0F,1F,44,00,00,00,00,00,
292000,00000157,false,Rx,0,8,C4,FF,00,00,00,00,00,00,
309000,00000506,false,Rx,0,8,00,00,02,3B,00,00,01,00,
318000,00000171,false,Rx,0,8,02,00,00,00,00,00,00,00,
321000,000001DF,false,Rx,0,8,00,00,00,00,00,20,A0,00,
328000,00000173,false,Rx,0,8,01,00,00,00,00,00,00,00,
339000,00000122,false,Rx,0,8,FF,F3,FF,FF,FC,00,00,00,
351000,0000044D,false,Rx,0,8,40,02,00,00,00,00,FF,FF,
369000,00000115,false,Rx,0,8,08,00,00,2D,00,00,00,00,
378000,00000114,false,Rx,0,8,14,60,00,01,00,00,01,00,
379000,00000123,false,Rx,0,8,00,00,00,00,00,00,00,00,
422000,00000169,false,Rx,0,8,40,00,00,00,00,00,00,00,
423000,0000016A,false,Rx,0,8,04,30,00,00,00,00,00,00,
423000,000001EB,false,Rx,0,8,01,00,00,00,00,00,00,00,
438000,000001E5,false,Rx,0,8,00,00,00,00,00,00,00,00,
449000,00000440,false,Rx,0,8,4D,02,00,00,00,00,FF,FF,
491000,00000157,false,Rx,0,8,C4,FF,00,00,00,00,00,00,
508000,00000506,false,Rx,0,8,00,00,02,3B,00,00,01,00,
518000,00000171,false,Rx,0,8,02,00,00,00,00,00,00,00,
521000,000001DF,false,Rx,0,8,00,00,00,00,00,20,A0,00,
528000,00000173,false,Rx,0,8,01,00,00,00,00,00,00,00,
538000,00000122,false,Rx,0,8,FF,F3,FF,FF,FC,00,00,00,
541000,0000044D,false,Rx,0,8,40,02,00,00,00,00,FF,FF,
569000,00000115,false,Rx,0,8,08,00,00,2D,00,00,00,00,
579000,00000114,false,Rx,0,8,14,60,00,01,00,00,01,00,
580000,00000123,false,Rx,0,8,00,00,00,00,00,00,00,00,
621000,00000169,false,Rx,0,8,40,00,00,00,00,00,00,00,
622000,0000016A,false,Rx,0,8,04,30,00,00,00,00,00,00,
624000,000001EB,false,Rx,0,8,01,00,00,00,00,00,00,00,
638000,00000440,false,Rx,0,8,4D,02,00,00,00,00,FF,FF,
639000,000001E5,false,Rx,0,8,00,00,00,00,00,00,00,00,
658000,0000012F,false,Rx,0,8,52,13,2F,11,09,07,03,CF,
691000,00000157,false,Rx,0,8,C4,FF,00,00,00,00,00,00,
698000,0000012F,false,Rx,0,8,52,13,2F,11,09,07,03,CF,
708000,00000506,false,Rx,0,8,00,00,02,3B,00,00,01,00,
719000,00000171,false,Rx,0,8,02,00,00,00,00,00,00,00,
721000,000001DF,false,Rx,0,8,00,00,00,00,00,20,A0,00,
729000,00000173,false,Rx,0,8,01,00,00,00,00,00,00,00,
731000,0000044D,false,Rx,0,8,40,02,00,00,00,00,FF,FF,
739000,00000122,false,Rx,0,8,FF,F3,FF,FF,FC,00,00,00,
739000,0000012F,false,Rx,0,8,52,13,2F,11,09,07,03,CF,
769000,00000115,false,Rx,0,8,08,00,00,2D,00,00,00,00,
779000,00000114,false,Rx,0,8,14,60,00,01,00,00,01,00,
780000,00000123,false,Rx,0,8,00,00,00,00,00,00,00,00,
821000,00000169,false,Rx,0,8,40,00,00,00,00,00,00,00,
822000,0000016A,false,Rx,0,8,04,30,00,00,00,00,00,00,
824000,000001EB,false,Rx,0,8,01,00,00,00,00,00,00,00,
828000,00000440,false,Rx,0,8,4D,02,00,00,00,00,FF,FF,
838000,000001E5,false,Rx,0,8,00,00,00,00,00,00,00,00,
892000,00000157,false,Rx,0,8,C4,FF,00,00,00,00,00,00,
909000,00000506,false,Rx,0,8,00,00,02,3B,00,00,01,00,
919000,00000171,false,Rx,0,8,02,00,00,00,00,00,00,00,
922000,0000044D,false,Rx,0,8,40,02,00,00,00,00,FF,FF,
923000,000001DF,false,Rx,0,8,00,00,00,00,00,20,A0,00,
929000,00000173,false,Rx,0,8,01,00,00,00,00,00,00,00,
939000,00000122,false,Rx,0,8,FF,F3,FF,FF,FC,00,00,00,
969000,00000115,false,Rx,0,8,08,00,00,2D,00,00,00,00,
979000,00000114,false,Rx,0,8,14,60,00,01,00,00,01,00,
979000,00000123,false,Rx,0,8,00,00,00,00,00,00,00,00,
18000,00000440,false,Rx,0,8,4D,02,00,00,00,00,FF,FF,
21000,00000169,false,Rx,0,8,40,00,00,00,00,00,00,00,
22000,0000016A,false,Rx,0,8,04,30,00,00,00,00,00,00,
23000,000001EB,false,Rx,0,8,01,00,00,00,00,00,00,00,
38000,000001E5,false,Rx,0,8,00,00,00,00,00,00,00,00,
91000,00000157,false,Rx,0,8,C4,FF,00,00,00,00,00,00,
98000,0000012F,false,Rx,0,8,52,13,2F,11,09,07,03,CF,
108000,00000506,false,Rx,0,8,00,00,02,3B,00,00,01,00,
113000,0000044D,false,Rx,0,8,40,02,00,00,00,00,FF,FF,
118000,00000171,false,Rx,0,8,02,00,00,00,00,00,00,00,
121000,000001DF,false,Rx,0,8,00,00,00,00,00,20,A0,00,
129000,00000173,false,Rx,0,8,01,00,00,00,00,00,00,00,
138000,00000122,false,Rx,0,8,FF,F3,FF,FF,FC,00,00,00,
168000,00000115,false,Rx,0,8,08,00,00,2D,00,00,00,00,
178000,00000114,false,Rx,0,8,14,60,00,01,00,00,01,00,
179000,00000123,false,Rx,0,8,00,00,00,00,00,00,00,00,
208000,00000440,false,Rx,0,8,4D,02,00,00,00,00,FF,FF,
209000,00000100,false,Rx,0,8,62,00,00,04,00,00,00,00,
221000,00000169,false,Rx,0,8,40,00,00,00,00,00,00,00,
223000,0000016A,false,Rx,0,8,04,30,00,00,00,00,00,00,
224000,000001EB,false,Rx,0,8,01,00,00,00,00,00,00,00,
238000,000001E5,false,Rx,0,8,00,00,00,00,00,00,00,00,
258000,00000197,false,Rx,0,8,0F,1F,44,00,00,00,00,00,
292000,00000157,false,Rx,0,8,C4,FF,00,00,00,00,00,00,
301000,0000044D,false,Rx,0,8,40,02,00,00,00,00,FF,FF,
308000,00000506,false,Rx,0,8,00,00,02,3B,00,00,01,00,
318000,00000171,false,Rx,0,8,02,00,00,00,00,00,00,00,
322000,000001DF,false,Rx,0,8,00,00,00,00,00,20,A0,00,
329000,00000173,false,Rx,0,8,01,00,00,00,00,00,00,00,
338000,00000122,false,Rx,0,8,FF,F3,FF,FF,FC,00,00,00,
368000,00000115,false,Rx,0,8,08,00,00,2D,00,00,00,00,
378000,00000114,false,Rx,0,8,14,60,00,01,00,00,01,00,
379000,00000123,false,Rx,0,8,00,00,00,00,00,00,00,00,
398000,00000440,false,Rx,0,8,4D,02,00,00,00,00,FF,FF,
422000,00000169,false,Rx,0,8,40,00,00,00,00,00,00,00,
423000,0000016A,false,Rx,0,8,04,30,00,00,00,00,00,00,
424000,000001EB,false,Rx,0,8,01,00,00,00,00,00,00,00,
439000,000001E5,false,Rx,0,8,00,00,00,00,00,00,00,00,
491000,0000044D,false,Rx,0,8,40,02,00,00,00,00,FF,FF,
492000,00000157,false,Rx,0,8,C4,FF,00,00,00,00,00,00,
508000,00000506,false,Rx,0,8,00,00,02,3B,00,00,01,00,
518000,00000171,false,Rx,0,8,02,00,00,00,00,00,00,00,
521000,000001DF,false,Rx,0,8,00,00,00,00,00,20,A0,00,
529000,00000173,false,Rx,0,8,01,00,00,00,00,00,00,00,
539000,00000122,false,Rx,0,8,FF,F3,FF,FF,FC,00,00,00,
568000,00000115,false,Rx,0,8,08,00,00,2D,00,00,00,00,
578000,00000114,false,Rx,0,8,14,60,00,01,00,00,01,00,
579000,00000123,false,Rx,0,8,00,00,00,00,00,00,00,00,
589000,00000440,false,Rx,0,8,4D,02,00,00,00,00,FF,FF,
621000,00000169,false,Rx,0,8,40,00,00,00,00,00,00,00,
622000,0000016A,false,Rx,0,8,04,30,00,00,00,00,00,00,
623000,000001EB,false,Rx,0,8,01,00,00,00,00,00,00,00,
639000,000001E5,false,Rx,0,8,00,00,00,00,00,00,00,00,
658000,0000012F,false,Rx,0,8,52,13,2F,12,09,07,03,CF,
682000,0000044D,false,Rx,0,8,40,02,00,00,00,00,FF,FF,
691000,00000157,false,Rx,0,8,C4,FF,00,00,00,00,00,00,
699000,0000012F,false,Rx,0,8,52,13,2F,12,09,07,03,CF,
708000,00000506,false,Rx,0,8,00,00,02,3B,00,00,01,00,
718000,00000171,false,Rx,0,8,02,00,00,00,00,00,00,00,
721000,000001DF,false,Rx,0,8,00,00,00,00,00,20,A0,00,
728000,00000173,false,Rx,0,8,01,00,00,00,00,00,00,00,
738000,00000122,false,Rx,0,8,FF,F3,FF,FF,FC,00,00,00,
739000,0000012F,false,Rx,0,8,52,13,2F,12,09,07,03,CF,
768000,00000115,false,Rx,0,8,08,00,00,2D,00,00,00,00,
778000,00000440,false,Rx,0,8,4D,02,00,00,00,00,FF,FF,
779000,00000114,false,Rx,0,8,14,60,00,01,00,00,01,00,
780000,00000123,false,Rx,0,8,00,00,00,00,00,00,00,00,
821000,00000169,false,Rx,0,8,40,00,00,00,00,00,00,00,
823000,0000016A,false,Rx,0,8,04,30,00,00,00,00,00,00,
824000,000001EB,false,Rx,0,8,01,00,00,00,00,00,00,00,
838000,000001E5,false,Rx,0,8,00,00,00,00,00,00,00,00,
872000,0000044D,false,Rx,0,8,40,02,00,00,00,00,FF,FF,
891000,00000157,false,Rx,0,8,C4,FF,00,00,00,00,00,00,
909000,00000506,false,Rx,0,8,00,00,02,3B,00,00,01,00,
918000,00000171,false,Rx,0,8,02,00,00,00,00,00,00,00,
921000,000001DF,false,Rx,0,8,00,00,00,00,00,20,A0,00,
928000,00000173,false,Rx,0,8,01,00,00,00,00,00,00,00,
939000,00000122,false,Rx,0,8,FF,F3,FF,FF,FC,00,00,00,
968000,00000440,false,Rx,0,8,4D,02,00,00,00,00,FF,FF,
969000,00000115,false,Rx,0,8,08,00,00,2D,00,00,00,00,
978000,00000114,false,Rx,0,8,14,60,00,01,00,00,01,00,
979000,00000123,false,Rx,0,8,00,00,00,00,00,00,00,00,
22000,00000169,false,Rx,0,8,40,00,00,00,00,00,00,00,
23000,0000016A,false,Rx,0,8,04,30,00,00,00,00,00,00,
23000,000001EB,false,Rx,0,8,01,00,00,00,00,00,00,00,
39000,000001E5,false,Rx,0,8,00,00,00,00,00,00,00,00,
63000,0000044D,false,Rx,0,8,40,02,00,00,00,00,FF,FF,
91000,00000157,false,Rx,0,8,C4,FF,00,00,00,00,00,00,
98000,0000012F,false,Rx,0,8,52,13,2F,12,09,07,03,CF,
108000,00000506,false,Rx,0,8,00,00,02,3B,00,00,01,00,
118000,00000171,false,Rx,0,8,02,00,00,00,00,00,00,00,
121000,000001DF,false,Rx,0,8,00,00,00,00,00,20,A0,00,
128000,00000173,false,Rx,0,8,01,00,00,00,00,00,00,00,
138000,00000122,false,Rx,0,8,FF,F3,FF,FF,FC,00,00,00,
158000,00000440,false,Rx,0,8,4D,02,00,00,00,00,FF,FF,
168000,00000115,false,Rx,0,8,08,00,00,2D,00,00,00,00,
178000,00000114,false,Rx,0,8,14,60,00,01,00,00,01,00,
180000,00000123,false,Rx,0,8,00,00,00,00,00,00,00,00,
221000,00000169,false,Rx,0,8,40,00,00,00,00,00,00,00,
223000,0000016A,false,Rx,0,8,04,30,00,00,00,00,00,00,
224000,000001EB,false,Rx,0,8,01,00,00,00,00,00,00,00,
238000,000001E5,false,Rx,0,8,00,00,00,00,00,00,00,00,
252000,0000044D,false,Rx,0,8,40,02,00,00,00,00,FF,FF,
259000,00000197,false,Rx,0,8,0F,1F,44,00,00,00,00,00,
291000,00000157,false,Rx,0,8,C4,FF,00,00,00,00,00,00,
308000,00000506,false,Rx,0,8,00,00,02,3B,00,00,01,00,
319000,00000171,false,Rx,0,8,02,00,00,00,00,00,00,00,
322000,000001DF,false,Rx,0,8,00,00,00,00,00,20,A0,00,
329000,00000173,false,Rx,0,8,01,00,00,00,00,00,00,00,
338000,00000122,false,Rx,0,8,FF,F3,FF,FF,FC,00,00,00,
348000,00000440,false,Rx,0,8,4D,02,00,00,00,00,FF,FF,
368000,00000115,false,Rx,0,8,08,00,00,2D,00,00,00,00,
378000,00000114,false,Rx,0,8,14,60,00,01,00,00,01,00,
379000,00000123,false,Rx,0,8,00,00,00,00,00,00,00,00,
422000,00000169,false,Rx,0,8,40,00,00,00,00,00,00,00,
423000,0000016A,false,Rx,0,8,04,30,00,00,00,00,00,00,
424000,000001EB,false,Rx,0,8,01,00,00,00,00,00,00,00,
438000,000001E5,false,Rx,0,8,00,00,00,00,00,00,00,00,
441000,0000044D,false,Rx,0,8,40,02,00,00,00,00,FF,FF,
491000,00000157,false,Rx,0,8,C4,FF,00,00,00,00,00,00,
509000,00000506,false,Rx,0,8,00,00,02,3B,00,00,01,00,
519000,00000171,false,Rx,0,8,02,00,00,00,00,00,00,00,
522000,000001DF,false,Rx,0,8,00,00,00,00,00,20,A0,00,
529000,00000173,false,Rx,0,8,01,00,00,00,00,00,00,00,
538000,00000440,false,Rx,0,8,4D,02,00,00,00,00,FF,FF,
539000,00000122,false,Rx,0,8,FF,F3,FF,FF,FC,00,00,00,
568000,00000115,false,Rx,0,8,08,00,00,2D,00,00,00,00,
578000,00000114,false,Rx,0,8,14,60,00,01,00,00,01,00,
579000,00000123,false,Rx,0,8,00,00,00,00,00,00,00,00,
622000,00000169,false,Rx,0,8,40,00,00,00,00,00,00,00,
623000,0000016A,false,Rx,0,8,04,30,00,00,00,00,00,00,
623000,000001EB,false,Rx,0,8,01,00,00,00,00,00,00,00,
632000,0000044D,false,Rx,0,8,40,02,00,00,00,00,FF,FF,
638000,000001E5,false,Rx,0,8,00,00,00,00,00,00,00,00,
669000,0000012F,false,Rx,0,8,52,13,2F,13,09,07,03,CF,
691000,00000157,false,Rx,0,8,C4,FF,00,00,00,00,00,00,
708000,0000012F,false,Rx,0,8,52,13,2F,13,09,07,03,CF,
709000,00000506,false,Rx,0,8,00,00,02,3B,00,00,01,00,
718000,00000171,false,Rx,0,8,02,00,00,00,00,00,00,00,
722000,000001DF,false,Rx,0,8,00,00,00,00,00,20,A0,00,
729000,00000440,false,Rx,0,8,4D,02,00,00,00,00,FF,FF,
730000,00000173,false,Rx,0,8,01,00,00,00,00,00,00,00,
738000,00000122,false,Rx,0,8,FF,F3,FF,FF,FC,00,00,00,
749000,0000012F,false,Rx,0,8,52,13,2F,13,09,07,03,CF,
769000,00000115,false,Rx,0,8,08,00,00,2D,00,00,00,00,
779000,00000114,false,Rx,0,8,14,60,00,01,00,00,01,00,
780000,00000123,false,Rx,0,8,00,00,00,00,00,00,00,00,
821000,0000044D,false,Rx,0,8,40,02,00,00,00,00,FF,FF,
822000,00000169,false,Rx,0,8,40,00,00,00,00,00,00,00,
824000,0000016A,false,Rx,0,8,04,30,00,00,00,00,00,00,
825000,000001EB,false,Rx,0,8,01,00,00,00,00,00,00,00,
838000,000001E5,false,Rx,0,8,00,00,00,00,00,00,00,00,
892000,00000157,false,Rx,0,8,C4,FF,00,00,00,00,00,00,
908000,00000506,false,Rx,0,8,00,00,02,3B,00,00,01,00,
919000,00000440,false,Rx,0,8,4D,02,00,00,00,00,FF,FF,
920000,00000171,false,Rx,0,8,02,00,00,00,00,00,00,00,
921000,000001DF,false,Rx,0,8,00,00,00,00,00,20,A0,00,
928000,00000173,false,Rx,0,8,01,00,00,00,00,00,00,00,
939000,00000122,false,Rx,0,8,FF,F3,FF,FF,FC,00,00,00,
969000,00000115,false,Rx,0,8,08,00,00,2D,00,00,00,00,
978000,00000114,false,Rx,0,8,14,60,00,01,00,00,01,00,
979000,00000123,false,Rx,0,8,00,00,00,00,00,00,00,00,
12000,0000044D,false,Rx,0,8,40,02,00,00,00,00,FF,FF,
22000,00000169,false,Rx,0,8,40,00,00,00,00,00,00,00,
23000,0000016A,false,Rx,0,8,04,30,00,00,00,00,00,00,
23000,000001EB,false,Rx,0,8,01,00,00,00,00,00,00,00,
38000,000001E5,false,Rx,0,8,00,00,00,00,00,00,00,00,
92000,00000157,false,Rx,0,8,C4,FF,00,00,00,00,00,00,
99000,0000012F,false,Rx,0,8,52,13,2F,13,09,07,03,CF,
109000,00000440,false,Rx,0,8,4D,02,00,00,00,00,FF,FF,
110000,00000506,false,Rx,0,8,00,00,02,3B,00,00,01,00,
119000,00000171,false,Rx,0,8,02,00,00,00,00,00,00,00,
122000,000001DF,false,Rx,0,8,00,00,00,00,00,20,A0,00,
129000,00000173,false,Rx,0,8,01,00,00,00,00,00,00,00,
138000,00000122,false,Rx,0,8,FF,F3,FF,FF,FC,00,00,00,
169000,00000115,false,Rx,0,8,08,00,00,2D,00,00,00,00,
178000,00000114,false,Rx,0,8,14,60,00,01,00,00,01,00,
179000,00000123,false,Rx,0,8,00,00,00,00,00,00,00,00,
201000,0000044D,false,Rx,0,8,40,02,00,00,00,00,FF,FF,
208000,00000100,false,Rx,0,8,62,00,00,04,00,00,00,00,
221000,00000169,false,Rx,0,8,40,00,00,00,00,00,00,00,
222000,0000016A,false,Rx,0,8,04,30,00,00,00,00,00,00,
224000,000001EB,false,Rx,0,8,01,00,00,00,00,00,00,00,
238000,000001E5,false,Rx,0,8,00,00,00,00,00,00,00,00,
258000,00000197,false,Rx,0,8,0F,1F,44,00,00,00,00,00,
292000,00000157,false,Rx,0,8,C4,FF,00,00,00,00,00,00,
299000,00000440,false,Rx,0,8,4D,02,00,00,00,00,FF,FF,
309000,00000506,false,Rx,0,8,00,00,02,3B,00,00,01,00,
319000,00000171,false,Rx,0,8,02,00,00,00,00,00,00,00,
322000,000001DF,false,Rx,0,8,00,00,00,00,00,20,A0,00,
329000,00000173,false,Rx,0,8,01,00,00,00,00,00,00,00,
339000,00000122,false,Rx,0,8,FF,F3,FF,FF,FC,00,00,00,
368000,00000115,false,Rx,0,8,08,00,00,2D,00,00,00,00,
378000,00000114,false,Rx,0,8,14,60,00,01,00,00,01,00,
379000,00000123,false,Rx,0,8,00,00,00,00,00,00,00,00,
391000,0000044D,false,Rx,0,8,40,02,00,00,00,00,FF,FF,
421000,00000169,false,Rx,0,8,40,00,00,00,00,00,00,00,
422000,0000016A,false,Rx,0,8,04,30,00,00,00,00,00,00,
424000,000001EB,false,Rx,0,8,01,00,00,00,00,00,00,00,
438000,000001E5,false,Rx,0,8,00,00,00,00,00,00,00,00,
488000,00000440,false,Rx,0,8,4D,02,00,00,00,00,FF,FF,
491000,00000157,false,Rx,0,8,C4,FF,00,00,00,00,00,00,
508000,00000506,false,Rx,0,8,00,00,02,3B,00,00,01,00,
518000,00000171,false,Rx,0,8,02,00,00,00,00,00,00,00,
521000,000001DF,false,Rx,0,8,00,00,00,00,00,20,A0,00,
528000,00000173,false,Rx,0,8,01,00,00,00,00,00,00,00,
538000,00000122,false,Rx,0,8,FF,F3,FF,FF,FC,00,00,00,
569000,00000115,false,Rx,0,8,08,00,00,2D,00,00,00,00,
579000,00000114,false,Rx,0,8,14,60,00,01,00,00,01,00,
580000,00000123,false,Rx,0,8,00,00,00,00,00,00,00,00,
581000,0000044D,false,Rx,0,8,40,02,00,00,00,00,FF,FF,
621000,00000169,false,Rx,0,8,40,00,00,00,00,00,00,00,
622000,0000016A,false,Rx,0,8,04,30,00,00,00,00,00,00,
623000,000001EB,false,Rx,0,8,01,00,00,00,00,00,00,00,
638000,000001E5,false,Rx,0,8,00,00,00,00,00,00,00,00,
668000,0000012F,false,Rx,0,8,52,13,2F,14,09,07,03,CF,
678000,00000440,false,Rx,0,8,4D,02,00,00,00,00,FF,FF,
692000,00000157,false,Rx,0,8,C4,FF,00,00,00,00,00,00,
708000,0000012F,false,Rx,0,8,52,13,2F,14,09,07,03,CF,
709000,00000506,false,Rx,0,8,00,00,02,3B,00,00,01,00,
719000,00000171,false,Rx,0,8,02,00,00,00,00,00,00,00,
722000,000001DF,false,Rx,0,8,00,00,00,00,00,20,A0,00,
729000,00000173,false,Rx,0,8,01,00,00,00,00,00,00,00,
738000,00000122,false,Rx,0,8,FF,F3,FF,FF,FC,00,00,00,
748000,0000012F,false,Rx,0,8,52,13,2F,14,09,07,03,CF,
768000,00000115,false,Rx,0,8,08,00,00,2D,00,00,00,00,
771000,0000044D,false,Rx,0,8,40,02,00,00,00,00,FF,FF,
778000,00000114,false,Rx,0,8,14,60,00,01,00,00,01,00,
779000,00000123,false,Rx,0,8,00,00,00,00,00,00,00,00,
821000,00000169,false,Rx,0,8,40,00,00,00,00,00,00,00,
822000,0000016A,false,Rx,0,8,04,30,00,00,00,00,00,00,
824000,000001EB,false,Rx,0,8,01,00,00,00,00,00,00,00,
838000,000001E5,false,Rx,0,8,00,00,00,00,00,00,00,00,
868000,00000440,false,Rx,0,8,4D,02,00,00,00,00,FF,FF,
891000,00000157,false,Rx,0,8,C4,FF,00,00,00,00,00,00,
908000,00000506,false,Rx,0,8,00,00,02,3B,00,00,01,00,
918000,00000171,false,Rx,0,8,02,00,00,00,00,00,00,00,
921000,000001DF,false,Rx,0,8,00,00,00,00,00,20,A0,00,
929000,00000173,false,Rx,0,8,01,00,00,00,00,00,00,00,
939000,00000122,false,Rx,0,8,FF,F3,FF,FF,FC,00,00,00,
963000,0000044D,false,Rx,0,8,40,02,00,00,00,00,FF,FF,
968000,00000115,false,Rx,0,8,08,00,00,2D,00,00,00,00,
979000,00000114,false,Rx,0,8,14,60,00,01,00,00,01,00,
980000,00000123,false,Rx,0,8,00,00,00,00,00,00,00,00,
21000,00000169,false,Rx,0,8,40,00,00,00,00,00,00,00,
23000,0000016A,false,Rx,0,8,04,30,00,00,00,00,00,00,
24000,000001EB,false,Rx,0,8,01,00,00,00,00,00,00,00,
38000,000001E5,false,Rx,0,8,00,00,00,00,00,00,00,00,
59000,00000440,false,Rx,0,8,4D,02,00,00,00,00,FF,FF,
91000,00000157,false,Rx,0,8,C4,FF,00,00,00,00,00,00,
98000,0000012F,false,Rx,0,8,52,13,2F,14,09,07,03,CF,
108000,00000506,false,Rx,0,8,00,00,02,3B,00,00,01,00,
118000,00000171,false,Rx,0,8,02,00,00,00,00,00,00,00,
121000,000001DF,false,Rx,0,8,00,00,00,00,00,20,A0,00,
128000,00000173,false,Rx,0,8,01,00,00,00,00,00,00,00,
138000,00000122,false,Rx,0,8,FF,F3,FF,FF,FC,00,00,00,
151000,0000044D,false,Rx,0,8,40,02,00,00,00,00,FF,FF,
168000,00000115,false,Rx,0,8,08,00,00,2D,00,00,00,00,
178000,00000114,false,Rx,0,8,14,60,00,01,00,00,01,00,
179000,00000123,false,Rx,0,8,00,00,00,00,00,00,00,00,
222000,00000169,false,Rx,0,8,40,00,00,00,00,00,00,00,
222000,0000016A,false,Rx,0,8,04,30,00,00,00,00,00,00,
223000,000001EB,false,Rx,0,8,01,00,00,00,00,00,00,00,
234000,00000485,false,Rx,0,8,03,03,00,00,00,00,00,00,
239000,000001E5,false,Rx,0,8,00,00,00,00,00,00,00,00,
249000,00000440,false,Rx,0,8,4D,02,00,00,00,00,FF,FF,
258000,00000197,false,Rx,0,8,0F,1F,44,00,00,00,00,00,
292000,00000157,false,Rx,0,8,C4,FF,00,00,00,00,00,00,
309000,00000506,false,Rx,0,8,00,00,02,3B,00,00,01,00,
319000,00000171,false,Rx,0,8,02,00,00,00,00,00,00,00,
322000,000001DF,false,Rx,0,8,00,00,00,00,00,20,A0,00,
329000,00000173,false,Rx,0,8,01,00,00,00,00,00,00,00,
339000,00000122,false,Rx,0,8,FF,F3,FF,FF,FC,00,00,00,
342000,0000044D,false,Rx,0,8,40,02,00,00,00,00,FF,FF,
369000,00000115,false,Rx,0,8,08,00,00,2D,00,00,00,00,
378000,00000114,false,Rx,0,8,14,60,00,01,00,00,01,00,
380000,00000123,false,Rx,0,8,00,00,00,00,00,00,00,00,
422000,00000169,false,Rx,0,8,40,00,00,00,00,00,00,00,
423000,0000016A,false,Rx,0,8,04,30,00,00,00,00,00,00,
424000,000001EB,false,Rx,0,8,01,00,00,00,00,00,00,00,
438000,00000440,false,Rx,0,8,4D,02,00,00,00,00,FF,FF,
439000,000001E5,false,Rx,0,8,00,00,00,00,00,00,00,00,
491000,00000157,false,Rx,0,8,C4,FF,00,00,00,00,00,00,
498000,00000114,false,Rx,0,8,11,60,00,01,00,00,13,E0,
508000,00000506,false,Rx,0,8,00,00,02,3B,00,00,01,00,
519000,00000171,false,Rx,0,8,02,00,00,00,00,00,00,00,
522000,000001DF,false,Rx,0,8,00,00,00,00,00,20,A0,00,
528000,00000173,false,Rx,0,8,01,00,00,00,00,00,00,00,
532000,0000044D,false,Rx,0,8,40,02,00,00,00,00,FF,FF,
539000,00000114,false,Rx,0,8,11,60,00,01,00,00,13,E0,
540000,00000122,false,Rx,0,8,FF,F3,FF,FF,FC,00,00,00,
544000,000004E8,false,Rx,0,8,02,00,00,00,00,00,00,00,
569000,000004E8,false,Rx,0,8,04,52,00,52,00,00,00,00,
570000,00000115,false,Rx,0,8,08,00,00,2D,00,00,00,00,
579000,00000114,false,Rx,0,8,11,60,00,01,00,00,13,E0,
580000,00000123,false,Rx,0,8,00,00,00,00,00,00,00,00,
621000,00000169,false,Rx,0,8,40,00,00,00,00,00,00,00,
623000,0000016A,false,Rx,0,8,04,30,00,00,00,00,00,00,
624000,000001EB,false,Rx,0,8,01,00,00,00,00,00,00,00,
628000,00000440,false,Rx,0,8,4D,02,00,00,00,00,FF,FF,
638000,000001E5,false,Rx,0,8,00,00,00,00,00,00,00,00,
664000,000004E8,false,Rx,0,8,04,52,00,52,00,00,00,00,
669000,0000012F,false,Rx,0,8,52,13,2F,15,09,07,03,CF,
691000,00000157,false,Rx,0,8,C4,FF,00,00,00,00,00,00,
708000,0000012F,false,Rx,0,8,52,13,2F,15,09,07,03,CF,
709000,00000506,false,Rx,0,8,00,00,02,3B,00,00,01,00,
719000,00000171,false,Rx,0,8,02,00,00,00,00,00,00,00,
721000,0000044D,false,Rx,0,8,40,02,00,00,00,00,FF,FF,
722000,000001DF,false,Rx,0,8,00,00,00,00,00,20,A0,00,
728000,00000173,false,Rx,0,8,01,00,00,00,00,00,00,00,
738000,00000122,false,Rx,0,8,FF,F3,FF,FF,FC,00,00,00,
748000,0000012F,false,Rx,0,8,52,13,2F,15,09,07,03,CF,
768000,00000115,false,Rx,0,8,08,00,00,2D,00,00,00,00,
778000,00000114,false,Rx,0,8,11,60,00,01,00,00,13,E0,
780000,00000123,false,Rx,0,8,00,00,00,00,00,00,00,00,
818000,00000440,false,Rx,0,8,4D,02,00,00,00,00,FF,FF,
821000,00000169,false,Rx,0,8,40,00,00,00,00,00,00,00,
822000,0000016A,false,Rx,0,8,04,30,00,00,00,00,00,00,
824000,000001EB,false,Rx,0,8,01,00,00,00,00,00,00,00,
838000,000001E5,false,Rx,0,8,00,00,00,00,00,00,00,00,
892000,00000157,false,Rx,0,8,C4,FF,00,00,00,00,00,00,
908000,00000506,false,Rx,0,8,00,00,02,3B,00,00,01,00,
913000,0000044D,false,Rx,0,8,40,02,00,00,00,00,FF,FF,
919000,00000171,false,Rx,0,8,02,00,00,00,00,00,00,00,
922000,000001DF,false,Rx,0,8,00,00,00,00,00,20,A0,00,
928000,00000173,false,Rx,0,8,01,00,00,00,00,00,00,00,
938000,00000122,false,Rx,0,8,FF,F3,FF,FF,FC,00,00,00,
968000,00000115,false,Rx,0,8,08,00,00,2D,00,00,00,00,
979000,00000114,false,Rx,0,8,11,60,00,01,00,00,13,E0,
980000,00000123,false,Rx,0,8,00,00,00,00,00,00,00,00,
8000,00000440,false,Rx,0,8,4D,02,00,00,00,00,FF,FF,
21000,00000169,false,Rx,0,8,40,00,00,00,00,00,00,00,
23000,0000016A,false,Rx,0,8,04,30,00,00,00,00,00,00,
24000,000001EB,false,Rx,0,8,01,00,00,00,00,00,00,00,
38000,000001E5,false,Rx,0,8,00,00,00,00,00,00,00,00,
91000,00000157,false,Rx,0,8,C4,FF,00,00,00,00,00,00,
98000,0000012F,false,Rx,0,8,52,13,2F,15,09,07,03,CF,
101000,0000044D,false,Rx,0,8,40,02,00,00,00,00,FF,FF,
108000,00000506,false,Rx,0,8,00,00,02,3B,00,00,01,00,
118000,00000171,false,Rx,0,8,02,00,00,00,00,00,00,00,
121000,000001DF,false,Rx,0,8,00,00,00,00,00,20,A0,00,
129000,00000173,false,Rx,0,8,01,00,00,00,00,00,00,00,
139000,00000122,false,Rx,0,8,FF,F3,FF,FF,FC,00,00,00,
168000,00000115,false,Rx,0,8,08,00,00,2D,00,00,00,00,
179000,00000114,false,Rx,0,8,11,60,00,01,00,00,13,E0,
180000,00000123,false,Rx,0,8,00,00,00,00,00,00,00,00,
198000,00000440,false,Rx,0,8,4D,02,00,00,00,00,FF,FF,
209000,00000100,false,Rx,0,8,62,00,00,04,00,00,00,00,
221000,00000169,false,Rx,0,8,40,00,00,00,00,00,00,00,
223000,0000016A,false,Rx,0,8,04,30,00,00,00,00,00,00,
224000,000001EB,false,Rx,0,8,01,00,00,00,00,00,00,00,
239000,000001E5,false,Rx,0,8,00,00,00,00,00,00,00,00,
259000,00000197,false,Rx,0,8,0F,1F,44,00,00,00,00,00,
291000,0000044D,false,Rx,0,8,40,02,00,00,00,00,FF,FF,
292000,00000157,false,Rx,0,8,C4,FF,00,00,00,00,00,00,
308000,00000506,false,Rx,0,8,00,00,02,3B,00,00,01,00,
318000,00000171,false,Rx,0,8,02,00,00,00,00,00,00,00,
321000,000001DF,false,Rx,0,8,00,00,00,00,00,20,A0,00,
328000,00000173,false,Rx,0,8,01,00,00,00,00,00,00,00,
338000,00000122,false,Rx,0,8,FF,F3,FF,FF,FC,00,00,00,
368000,00000115,false,Rx,0,8,08,00,00,2D,00,00,00,00,
378000,00000114,false,Rx,0,8,11,60,00,01,00,00,13,E0,
379000,00000123,false,Rx,0,8,00,00,00,00,00,00,00,00,
388000,00000440,false,Rx,0,8,4D,02,00,00,00,00,FF,FF,
421000,00000169,false,Rx,0,8,40,00,00,00,00,00,00,00,
423000,0000016A,false,Rx,0,8,04,30,00,00,00,00,00,00,
424000,000001EB,false,Rx,0,8,01,00,00,00,00,00,00,00,
438000,000001E5,false,Rx,0,8,00,00,00,00,00,00,00,00,
482000,0000044D,false,Rx,0,8,40,02,00,00,00,00,FF,FF,
492000,00000157,false,Rx,0,8,C4,FF,00,00,00,00,00,00,
508000,00000506,false,Rx,0,8,00,00,02,3B,00,00,01,00,
518000,00000171,false,Rx,0,8,02,00,00,00,00,00,00,00,
521000,000001DF,false,Rx,0,8,00,00,00,00,00,20,A0,00,
528000,00000173,false,Rx,0,8,01,00,00,00,00,00,00,00,
538000,00000122,false,Rx,0,8,FF,F3,FF,FF,FC,00,00,00,
568000,00000115,false,Rx,0,8,08,00,00,2D,00,00,00,00,
578000,00000440,false,Rx,0,8,4D,02,00,00,00,00,FF,FF,
579000,00000114,false,Rx,0,8,11,60,00,01,00,00,13,E0,
580000,00000123,false,Rx,0,8,00,00,00,00,00,00,00,00,
621000,00000169,false,Rx,0,8,40,00,00,00,00,00,00,00,
622000,0000016A,false,Rx,0,8,04,30,00,00,00,00,00,00,
624000,000001EB,false,Rx,0,8,01,00,00,00,00,00,00,00,
639000,000001E5,false,Rx,0,8,00,00,00,00,00,00,00,00,
672000,0000044D,false,Rx,0,8,40,02,00,00,00,00,FF,FF,
691000,00000157,false,Rx,0,8,C4,FF,00,00,00,00,00,00,
708000,00000506,false,Rx,0,8,00,00,02,3B,00,00,01,00,
718000,0000012F,false,Rx,0,8,52,13,2F,16,09,07,03,CF,
719000,00000171,false,Rx,0,8,02,00,00,00,00,00,00,00,
721000,000001DF,false,Rx,0,8,00,00,00,00,00,20,A0,00,
728000,00000173,false,Rx,0,8,01,00,00,00,00,00,00,00,
738000,00000122,false,Rx,0,8,FF,F3,FF,FF,FC,00,00,00,
758000,0000012F,false,Rx,0,8,52,13,2F,16,09,07,03,CF,
768000,00000440,false,Rx,0,8,4D,02,00,00,00,00,FF,FF,
769000,00000115,false,Rx,0,8,08,00,00,2D,00,00,00,00,
778000,00000114,false,Rx,0,8,11,60,00,01,00,00,13,E0,
779000,00000123,false,Rx,0,8,00,00,00,00,00,00,00,00,
798000,0000012F,false,Rx,0,8,52,13,2F,16,09,07,03,CF,
821000,00000169,false,Rx,0,8,40,00,00,00,00,00,00,00,
823000,0000016A,false,Rx,0,8,04,30,00,00,00,00,00,00,
824000,000001EB,false,Rx,0,8,01,00,00,00,00,00,00,00,
839000,000001E5,false,Rx,0,8,00,00,00,00,00,00,00,00,
863000,0000044D,false,Rx,0,8,40,02,00,00,00,00,FF,FF,
892000,00000157,false,Rx,0,8,C4,FF,00,00,00,00,00,00,
908000,00000506,false,Rx,0,8,00,00,02,3B,00,00,01,00,
919000,00000171,false,Rx,0,8,02,00,00,00,00,00,00,00,
922000,000001DF,false,Rx,0,8,00,00,00,00,00,20,A0,00,
928000,00000173,false,Rx,0,8,01,00,00,00,00,00,00,00,
938000,00000122,false,Rx,0,8,FF,F3,FF,FF,FC,00,00,00,
958000,00000440,false,Rx,0,8,4D,02,00,00,00,00,FF,FF,
968000,00000115,false,Rx,0,8,08,00,00,2D,00,00,00,00,
978000,00000114,false,Rx,0,8,11,60,00,01,00,00,13,E0,
979000,00000123,false,Rx,0,8,00,00,00,00,00,00,00,00,
21000,00000169,false,Rx,0,8,40,00,00,00,00,00,00,00,
23000,0000016A,false,Rx,0,8,04,30,00,00,00,00,00,00,
24000,000001EB,false,Rx,0,8,01,00,00,00,00,00,00,00,
39000,000001E5,false,Rx,0,8,00,00,00,00,00,00,00,00,
52000,0000044D,false,Rx,0,8,40,02,00,00,00,00,FF,FF,
92000,00000157,false,Rx,0,8,C4,FF,00,00,00,00,00,00,
99000,0000012F,false,Rx,0,8,52,13,2F,16,09,07,03,CF,
109000,00000506,false,Rx,0,8,00,00,02,3B,00,00,01,00,
118000,00000171,false,Rx,0,8,02,00,00,00,00,00,00,00,
121000,000001DF,false,Rx,0,8,00,00,00,00,00,20,A0,00,
128000,00000173,false,Rx,0,8,01,00,00,00,00,00,00,00,
139000,00000122,false,Rx,0,8,FF,F3,FF,FF,FC,00,00,00,
148000,00000440,false,Rx,0,8,4D,02,00,00,00,00,FF,FF,
169000,00000115,false,Rx,0,8,08,00,00,2D,00,00,00,00,
179000,00000114,false,Rx,0,8,11,60,00,01,00,00,13,E0,
180000,00000123,false,Rx,0,8,00,00,00,00,00,00,00,00,
222000,00000169,false,Rx,0,8,40,00,00,00,00,00,00,00,
223000,0000016A,false,Rx,0,8,04,30,00,00,00,00,00,00,
224000,000001EB,false,Rx,0,8,01,00,00,00,00,00,00,00,
238000,000001E5,false,Rx,0,8,00,00,00,00,00,00,00,00,
241000,0000044D,false,Rx,0,8,40,02,00,00,00,00,FF,FF,
258000,00000197,false,Rx,0,8,0F,1F,44,00,00,00,00,00,
291000,00000157,false,Rx,0,8,C4,FF,00,00,00,00,00,00,
308000,00000506,false,Rx,0,8,00,00,02,3B,00,00,01,00,
318000,00000171,false,Rx,0,8,02,00,00,00,00,00,00,00,
321000,000001DF,false,Rx,0,8,00,00,00,00,00,20,A0,00,
329000,00000173,false,Rx,0,8,01,00,00,00,00,00,00,00,
339000,00000440,false,Rx,0,8,4D,02,00,00,00,00,FF,FF,
340000,00000122,false,Rx,0,8,FF,F3,FF,FF,FC,00,00,00,
368000,00000115,false,Rx,0,8,08,00,00,2D,00,00,00,00,
378000,00000114,false,Rx,0,8,11,60,00,01,00,00,13,E0,
379000,00000123,false,Rx,0,8,00,00,00,00,00,00,00,00,
421000,00000169,false,Rx,0,8,40,00,00,00,00,00,00,00,
422000,0000016A,false,Rx,0,8,04,30,00,00,00,00,00,00,
424000,000001EB,false,Rx,0,8,01,00,00,00,00,00,00,00,
431000,0000044D,false,Rx,0,8,40,02,00,00,00,00,FF,FF,
438000,000001E5,false,Rx,0,8,00,00,00,00,00,00,00,00,
491000,00000157,false,Rx,0,8,C4,FF,00,00,00,00,00,00,
509000,00000506,false,Rx,0,8,00,00,02,3B,00,00,01,00,
518000,00000171,false,Rx,0,8,02,00,00,00,00,00,00,00,
521000,000001DF,false,Rx,0,8,00,00,00,00,00,20,A0,00,
528000,00000440,false,Rx,0,8,4D,02,00,00,00,00,FF,FF,
530000,00000173,false,Rx,0,8,01,00,00,00,00,00,00,00,
539000,00000122,false,Rx,0,8,FF,F3,FF,FF,FC,00,00,00,
569000,00000115,false,Rx,0,8,08,00,00,2D,00,00,00,00,
579000,00000114,false,Rx,0,8,11,60,00,01,00,00,13,E0,
580000,00000123,false,Rx,0,8,00,00,00,00,00,00,00,00,
621000,0000044D,false,Rx,0,8,40,02,00,00,00,00,FF,FF,
622000,00000169,false,Rx,0,8,40,00,00,00,00,00,00,00,
623000,0000016A,false,Rx,0,8,04,30,00,00,00,00,00,00,
624000,000001EB,false,Rx,0,8,01,00,00,00,00,00,00,00,
638000,000001E5,false,Rx,0,8,00,00,00,00,00,00,00,00,
692000,00000157,false,Rx,0,8,C4,FF,00,00,00,00,00,00,
708000,00000506,false,Rx,0,8,00,00,02,3B,00,00,01,00,
718000,00000440,false,Rx,0,8,4D,02,00,00,00,00,FF,FF,
719000,0000012F,false,Rx,0,8,52,13,2F,17,09,07,03,CF,
720000,00000171,false,Rx,0,8,02,00,00,00,00,00,00,00,
722000,000001DF,false,Rx,0,8,00,00,00,00,00,20,A0,00,
729000,00000173,false,Rx,0,8,01,00,00,00,00,00,00,00,
738000,00000122,false,Rx,0,8,FF,F3,FF,FF,FC,00,00,00,
759000,0000012F,false,Rx,0,8,52,13,2F,17,09,07,03,CF,
769000,00000115,false,Rx,0,8,08,00,00,2D,00,00,00,00,
779000,00000114,false,Rx,0,8,11,60,00,01,00,00,13,E0,
780000,00000123,false,Rx,0,8,00,00,00,00,00,00,00,00,
798000,0000012F,false,Rx,0,8,52,13,2F,17,09,07,03,CF,
813000,0000044D,false,Rx,0,8,40,02,00,00,00,00,FF,FF,
821000,00000169,false,Rx,0,8,40,00,00,00,00,00,00,00,
823000,0000016A,false,Rx,0,8,04,30,00,00,00,00,00,00,
824000,000001EB,false,Rx,0,8,01,00,00,00,00,00,00,00,
838000,000001E5,false,Rx,0,8,00,00,00,00,00,00,00,00,
892000,00000157,false,Rx,0,8,C4,FF,00,00,00,00,00,00,
908000,00000440,false,Rx,0,8,4D,02,00,00,00,00,FF,FF,
910000,00000506,false,Rx,0,8,00,00,02,3B,00,00,01,00,
919000,00000171,false,Rx,0,8,02,00,00,00,00,00,00,00,
922000,000001DF,false,Rx,0,8,00,00,00,00,00,20,A0,00,
928000,00000173,false,Rx,0,8,01,00,00,00,00,00,00,00,
938000,00000122,false,Rx,0,8,FF,F3,FF,FF,FC,00,00,00,
968000,00000115,false,Rx,0,8,08,00,00,2D,00,00,00,00,
978000,00000114,false,Rx,0,8,11,60,00,01,00,00,13,E0,
979000,00000123,false,Rx,0,8,00,00,00,00,00,00,00,00,
2000,0000044D,false,Rx,0,8,40,02,00,00,00,00,FF,FF,
22000,00000169,false,Rx,0,8,40,00,00,00,00,00,00,00,
23000,0000016A,false,Rx,0,8,04,30,00,00,00,00,00,00,
24000,000001EB,false,Rx,0,8,01,00,00,00,00,00,00,00,
39000,000001E5,false,Rx,0,8,00,00,00,00,00,00,00,00,
92000,00000157,false,Rx,0,8,C4,FF,00,00,00,00,00,00,
98000,00000440,false,Rx,0,8,4D,02,00,00,00,00,FF,FF,
99000,0000012F,false,Rx,0,8,52,13,2F,17,09,07,03,CF,
108000,00000506,false,Rx,0,8,00,00,02,3B,00,00,01,00,
118000,00000171,false,Rx,0,8,02,00,00,00,00,00,00,00,
121000,000001DF,false,Rx,0,8,00,00,00,00,00,20,A0,00,
128000,00000173,false,Rx,0,8,01,00,00,00,00,00,00,00,
138000,00000122,false,Rx,0,8,FF,F3,FF,FF,FC,00,00,00,
169000,00000115,false,Rx,0,8,08,00,00,2D,00,00,00,00,
179000,00000114,false,Rx,0,8,11,60,00,01,00,00,13,E0,
180000,00000123,false,Rx,0,8,00,00,00,00,00,00,00,00,
191000,0000044D,false,Rx,0,8,40,02,00,00,00,00,FF,FF,
208000,00000100,false,Rx,0,8,62,00,00,04,00,00,00,00,
222000,00000169,false,Rx,0,8,40,00,00,00,00,00,00,00,
223000,0000016A,false,Rx,0,8,04,30,00,00,00,00,00,00,
224000,000001EB,false,Rx,0,8,01,00,00,00,00,00,00,00,
238000,000001E5,false,Rx,0,8,00,00,00,00,00,00,00,00,
258000,00000197,false,Rx,0,8,0F,1F,44,00,00,00,00,00,
288000,00000440,false,Rx,0,8,4D,02,00,00,00,00,FF,FF,
291000,00000157,false,Rx,0,8,C4,FF,00,00,00,00,00,00,
308000,00000506,false,Rx,0,8,00,00,02,3B,00,00,01,00,
318000,00000171,false,Rx,0,8,02,00,00,00,00,00,00,00,
321000,000001DF,false,Rx,0,8,00,00,00,00,00,20,A0,00,
328000,00000173,false,Rx,0,8,01,00,00,00,00,00,00,00,
338000,00000122,false,Rx,0,8,FF,F3,FF,FF,FC,00,00,00,
369000,00000115,false,Rx,0,8,08,00,00,2D,00,00,00,00,
378000,00000114,false,Rx,0,8,11,60,00,01,00,00,13,E0,
379000,00000123,false,Rx,0,8,00,00,00,00,00,00,00,00,
381000,0000044D,false,Rx,0,8,40,02,00,00,00,00,FF,FF,
421000,00000169,false,Rx,0,8,40,00,00,00,00,00,00,00,
422000,0000016A,false,Rx,0,8,04,30,00,00,00,00,00,00,
423000,000001EB,false,Rx,0,8,01,00,00,00,00,00,00,00,
438000,000001E5,false,Rx,0,8,00,00,00,00,00,00,00,00,
478000,00000440,false,Rx,0,8,4D,02,00,00,00,00,FF,FF,
491000,00000157,false,Rx,0,8,C4,FF,00,00,00,00,00,00,
508000,00000506,false,Rx,0,8,00,00,02,3B,00,00,01,00,
518000,00000171,false,Rx,0,8,02,00,00,00,00,00,00,00,
522000,000001DF,false,Rx,0,8,00,00,00,00,00,20,A0,00,
528000,00000173,false,Rx,0,8,01,00,00,00,00,00,00,00,
538000,00000122,false,Rx,0,8,FF,F3,FF,FF,FC,00,00,00,
568000,00000115,false,Rx,0,8,08,00,00,2D,00,00,00,00,
571000,0000044D,false,Rx,0,8,40,02,00,00,00,00,FF,FF,
578000,00000114,false,Rx,0,8,11,60,00,01,00,00,13,E0,
579000,00000123,false,Rx,0,8,00,00,00,00,00,00,00,00,
622000,00000169,false,Rx,0,8,40,00,00,00,00,00,00,00,
623000,0000016A,false,Rx,0,8,04,30,00,00,00,00,00,00,
624000,000001EB,false,Rx,0,8,01,00,00,00,00,00,00,00,
639000,000001E5,false,Rx,0,8,00,00,00,00,00,00,00,00,
668000,00000440,false,Rx,0,8,4D,02,00,00,00,00,FF,FF,
692000,00000157,false,Rx,0,8,C4,FF,00,00,00,00,00,00,
708000,00000506,false,Rx,0,8,00,00,02,3B,00,00,01,00,
718000,00000171,false,Rx,0,8,02,00,00,00,00,00,00,00,
721000,000001DF,false,Rx,0,8,00,00,00,00,00,20,A0,00,
728000,0000012F,false,Rx,0,8,52,13,2F,18,09,07,03,CF,
729000,00000173,false,Rx,0,8,01,00,00,00,00,00,00,00,
738000,00000122,false,Rx,0,8,FF,F3,FF,FF,FC,00,00,00,
763000,0000044D,false,Rx,0,8,40,02,00,00,00,00,FF,FF,
768000,00000115,false,Rx,0,8,08,00,00,2D,00,00,00,00,
769000,0000012F,false,Rx,0,8,52,13,2F,18,09,07,03,CF,
778000,00000114,false,Rx,0,8,11,60,00,01,00,00,13,E0,
779000,00000123,false,Rx,0,8,00,00,00,00,00,00,00,00,
808000,0000012F,false,Rx,0,8,52,13,2F,18,09,07,03,CF,
821000,00000169,false,Rx,0,8,40,00,00,00,00,00,00,00,
823000,0000016A,false,Rx,0,8,04,30,00,00,00,00,00,00,
824000,000001EB,false,Rx,0,8,01,00,00,00,00,00,00,00,
838000,000001E5,false,Rx,0,8,00,00,00,00,00,00,00,00,
858000,00000440,false,Rx,0,8,4D,02,00,00,00,00,FF,FF,
892000,00000157,false,Rx,0,8,C4,FF,00,00,00,00,00,00,
908000,00000506,false,Rx,0,8,00,00,02,3B,00,00,01,00,
919000,00000171,false,Rx,0,8,02,00,00,00,00,00,00,00,
921000,000001DF,false,Rx,0,8,00,00,00,00,00,20,A0,00,
928000,00000173,false,Rx,0,8,01,00,00,00,00,00,00,00,
938000,00000122,false,Rx,0,8,FF,F3,FF,FF,FC,00,00,00,
952000,0000044D,false,Rx,0,8,40,02,00,00,00,00,FF,FF,
968000,00000115,false,Rx,0,8,08,00,00,2D,00,00,00,00,
978000,00000114,false,Rx,0,8,11,60,00,01,00,00,13,E0,
980000,00000123,false,Rx,0,8,00,00,00,00,00,00,00,00,
21000,00000169,false,Rx,0,8,40,00,00,00,00,00,00,00,
23000,0000016A,false,Rx,0,8,04,30,00,00,00,00,00,00,
24000,000001EB,false,Rx,0,8,01,00,00,00,00,00,00,00,
38000,000001E5,false,Rx,0,8,00,00,00,00,00,00,00,00,
49000,00000440,false,Rx,0,8,4D,02,00,00,00,00,FF,FF,
91000,00000157,false,Rx,0,8,C4,FF,00,00,00,00,00,00,
98000,0000012F,false,Rx,0,8,52,13,2F,18,09,07,03,CF,
108000,00000506,false,Rx,0,8,00,00,02,3B,00,00,01,00,
118000,00000171,false,Rx,0,8,02,00,00,00,00,00,00,00,
121000,000001DF,false,Rx,0,8,00,00,00,00,00,20,A0,00,
128000,00000173,false,Rx,0,8,01,00,00,00,00,00,00,00,
138000,00000122,false,Rx,0,8,FF,F3,FF,FF,FC,00,00,00,
141000,0000044D,false,Rx,0,8,40,02,00,00,00,00,FF,FF,
168000,00000115,false,Rx,0,8,08,00,00,2D,00,00,00,00,
178000,00000114,false,Rx,0,8,11,60,00,01,00,00,13,E0,
179000,00000123,false,Rx,0,8,00,00,00,00,00,00,00,00,
221000,00000169,false,Rx,0,8,40,00,00,00,00,00,00,00,
222000,0000016A,false,Rx,0,8,04,30,00,00,00,00,00,00,
223000,000001EB,false,Rx,0,8,01,00,00,00,00,00,00,00,
238000,00000440,false,Rx,0,8,4D,02,00,00,00,00,FF,FF,
240000,000001E5,false,Rx,0,8,00,00,00,00,00,00,00,00,
258000,00000197,false,Rx,0,8,0F,1F,44,00,00,00,00,00,
291000,00000157,false,Rx,0,8,C4,FF,00,00,00,00,00,00,
308000,00000506,false,Rx,0,8,00,00,02,3B,00,00,01,00,
318000,00000171,false,Rx,0,8,02,00,00,00,00,00,00,00,
321000,000001DF,false,Rx,0,8,00,00,00,00,00,20,A0,00,
328000,00000173,false,Rx,0,8,01,00,00,00,00,00,00,00,
331000,0000044D,false,Rx,0,8,40,02,00,00,00,00,FF,FF,
338000,00000122,false,Rx,0,8,FF,F3,FF,FF,FC,00,00,00,
368000,00000115,false,Rx,0,8,08,00,00,2D,00,00,00,00,
378000,00000114,false,Rx,0,8,11,60,00,01,00,00,13,E0,
380000,00000123,false,Rx,0,8,00,00,00,00,00,00,00,00,
421000,00000169,false,Rx,0,8,40,00,00,00,00,00,00,00,
423000,0000016A,false,Rx,0,8,04,30,00,00,00,00,00,00,
424000,000001EB,false,Rx,0,8,01,00,00,00,00,00,00,00,
428000,00000440,false,Rx,0,8,4D,02,00,00,00,00,FF,FF,
438000,000001E5,false,Rx,0,8,00,00,00,00,00,00,00,00,
492000,00000157,false,Rx,0,8,C4,FF,00,00,00,00,00,00,
508000,00000506,false,Rx,0,8,00,00,02,3B,00,00,01,00,
519000,00000171,false,Rx,0,8,02,00,00,00,00,00,00,00,
521000,0000044D,false,Rx,0,8,40,02,00,00,00,00,FF,FF,
523000,000001DF,false,Rx,0,8,00,00,00,00,00,20,A0,00,
529000,00000173,false,Rx,0,8,01,00,00,00,00,00,00,00,
539000,00000122,false,Rx,0,8,FF,F3,FF,FF,FC,00,00,00,
568000,00000115,false,Rx,0,8,08,00,00,2D,00,00,00,00,
578000,00000114,false,Rx,0,8,11,60,00,01,00,00,13,E0,
580000,00000123,false,Rx,0,8,00,00,00,00,00,00,00,00,
618000,00000440,false,Rx,0,8,4D,02,00,00,00,00,FF,FF,
622000,00000169,false,Rx,0,8,40,00,00,00,00,00,00,00,
623000,0000016A,false,Rx,0,8,04,30,00,00,00,00,00,00,
624000,000001EB,false,Rx,0,8,01,00,00,00,00,00,00,00,
638000,000001E5,false,Rx,0,8,00,00,00,00,00,00,00,00,
692000,00000157,false,Rx,0,8,C4,FF,00,00,00,00,00,00,
709000,00000506,false,Rx,0,8,00,00,02,3B,00,00,01,00,
713000,0000044D,false,Rx,0,8,40,02,00,00,00,00,FF,FF,
718000,00000171,false,Rx,0,8,02,00,00,00,00,00,00,00,
721000,000001DF,false,Rx,0,8,00,00,00,00,00,20,A0,00,
728000,00000173,false,Rx,0,8,01,00,00,00,00,00,00,00,
738000,00000122,false,Rx,0,8,FF,F3,FF,FF,FC,00,00,00,
768000,00000115,false,Rx,0,8,08,00,00,2D,00,00,00,00,
778000,00000114,false,Rx,0,8,11,60,00,01,00,00,13,E0,
779000,00000123,false,Rx,0,8,00,00,00,00,00,00,00,00,
808000,00000440,false,Rx,0,8,4D,02,00,00,00,00,FF,FF,
821000,00000169,false,Rx,0,8,40,00,00,00,00,00,00,00,
822000,0000016A,false,Rx,0,8,04,30,00,00,00,00,00,00,
824000,000001EB,false,Rx,0,8,01,00,00,00,00,00,00,00,
838000,000001E5,false,Rx,0,8,00,00,00,00,00,00,00,00,
868000,0000012F,false,Rx,0,8,52,13,2F,1A,09,07,03,CF,
891000,00000157,false,Rx,0,8,C4,FF,00,00,00,00,00,00,
901000,0000044D,false,Rx,0,8,40,02,00,00,00,00,FF,FF,
908000,0000012F,false,Rx,0,8,52,13,2F,1A,09,07,03,CF,
909000,00000506,false,Rx,0,8,00,00,02,3B,00,00,01,00,
918000,00000171,false,Rx,0,8,02,00,00,00,00,00,00,00,
921000,000001DF,false,Rx,0,8,00,00,00,00,00,20,A0,00,
929000,00000173,false,Rx,0,8,01,00,00,00,00,00,00,00,
938000,00000122,false,Rx,0,8,FF,F3,FF,FF,FC,00,00,00,
949000,0000012F,false,Rx,0,8,52,13,2F,1A,09,07,03,CF,
968000,00000115,false,Rx,0,8,08,00,00,2D,00,00,00,00,
978000,00000114,false,Rx,0,8,11,60,00,01,00,00,13,E0,
979000,00000123,false,Rx,0,8,00,00,00,00,00,00,00,00,
998000,00000440,false,Rx,0,8,4D,02,00,00,00,00,FF,FF,
21000,00000169,false,Rx,0,8,40,00,00,00,00,00,00,00,
22000,0000016A,false,Rx,0,8,04,30,00,00,00,00,00,00,
23000,000001EB,false,Rx,0,8,01,00,00,00,00,00,00,00,
38000,000001E5,false,Rx,0,8,00,00,00,00,00,00,00,00,
92000,0000044D,false,Rx,0,8,40,02,00,00,00,00,FF,FF,
93000,00000157,false,Rx,0,8,C4,FF,00,00,00,00,00,00,
98000,0000012F,false,Rx,0,8,52,13,2F,1A,09,07,03,CF,
108000,00000506,false,Rx,0,8,00,00,02,3B,00,00,01,00,
118000,00000171,false,Rx,0,8,02,00,00,00,00,00,00,00,
121000,000001DF,false,Rx,0,8,00,00,00,00,00,20,A0,00,
128000,00000173,false,Rx,0,8,01,00,00,00,00,00,00,00,
138000,00000122,false,Rx,0,8,FF,F3,FF,FF,FC,00,00,00,
168000,00000115,false,Rx,0,8,08,00,00,2D,00,00,00,00,
178000,00000114,false,Rx,0,8,11,60,00,01,00,00,13,E0,
179000,00000123,false,Rx,0,8,00,00,00,00,00,00,00,00,
187000,00000440,false,Rx,0,8,4D,02,00,00,00,00,FF,FF,
208000,00000100,false,Rx,0,8,62,00,00,04,00,00,00,00,
221000,00000169,false,Rx,0,8,40,00,00,00,00,00,00,00,
222000,0000016A,false,Rx,0,8,04,30,00,00,00,00,00,00,
223000,000001EB,false,Rx,0,8,01,00,00,00,00,00,00,00,
239000,000001E5,false,Rx,0,8,00,00,00,00,00,00,00,00,
258000,00000197,false,Rx,0,8,0F,1F,44,00,00,00,00,00,
281000,0000044D,false,Rx,0,8,40,02,00,00,00,00,FF,FF,
291000,00000157,false,Rx,0,8,C4,FF,00,00,00,00,00,00,
308000,00000506,false,Rx,0,8,00,00,02,3B,00,00,01,00,
319000,00000171,false,Rx,0,8,02,00,00,00,00,00,00,00,
322000,000001DF,false,Rx,0,8,00,00,00,00,00,20,A0,00,
329000,00000173,false,Rx,0,8,01,00,00,00,00,00,00,00,
338000,00000122,false,Rx,0,8,FF,F3,FF,FF,FC,00,00,00,
368000,00000115,false,Rx,0,8,08,00,00,2D,00,00,00,00,
378000,00000440,false,Rx,0,8,4D,02,00,00,00,00,FF,FF,
379000,00000114,false,Rx,0,8,11,60,00,01,00,00,13,E0,
381000,00000123,false,Rx,0,8,00,00,00,00,00,00,00,00,
421000,00000169,false,Rx,0,8,40,00,00,00,00,00,00,00,
422000,0000016A,false,Rx,0,8,04,30,00,00,00,00,00,00,
424000,000001EB,false,Rx,0,8,01,00,00,00,00,00,00,00,
438000,000001E5,false,Rx,0,8,00,00,00,00,00,00,00,00,
471000,0000044D,false,Rx,0,8,40,02,00,00,00,00,FF,FF,
491000,00000157,false,Rx,0,8,C4,FF,00,00,00,00,00,00,
508000,00000506,false,Rx,0,8,00,00,02,3B,00,00,01,00,
518000,00000171,false,Rx,0,8,02,00,00,00,00,00,00,00,
521000,000001DF,false,Rx,0,8,00,00,00,00,00,20,A0,00,
528000,00000173,false,Rx,0,8,01,00,00,00,00,00,00,00,
538000,00000122,false,Rx,0,8,FF,F3,FF,FF,FC,00,00,00,
568000,00000440,false,Rx,0,8,4D,02,00,00,00,00,FF,FF,
569000,00000115,false,Rx,0,8,08,00,00,2D,00,00,00,00,
578000,00000114,false,Rx,0,8,11,60,00,01,00,00,13,E0,
579000,00000123,false,Rx,0,8,00,00,00,00,00,00,00,00,
622000,00000169,false,Rx,0,8,40,00,00,00,00,00,00,00,
623000,0000016A,false,Rx,0,8,04,30,00,00,00,00,00,00,
624000,000001EB,false,Rx,0,8,01,00,00,00,00,00,00,00,
637000,000001E5,false,Rx,0,8,00,00,00,00,00,00,00,00,
663000,0000044D,false,Rx,0,8,40,02,00,00,00,00,FF,FF,
692000,00000157,false,Rx,0,8,C4,FF,00,00,00,00,00,00,
708000,00000506,false,Rx,0,8,00,00,02,3B,00,00,01,00,
718000,00000171,false,Rx,0,8,02,00,00,00,00,00,00,00,
721000,000001DF,false,Rx,0,8,00,00,00,00,00,20,A0,00,
729000,00000173,false,Rx,0,8,01,00,00,00,00,00,00,00,
738000,00000122,false,Rx,0,8,FF,F3,FF,FF,FC,00,00,00,
758000,00000440,false,Rx,0,8,4D,02,00,00,00,00,FF,FF,
768000,00000115,false,Rx,0,8,08,00,00,2D,00,00,00,00,
778000,00000114,false,Rx,0,8,11,60,00,01,00,00,13,E0,
780000,00000123,false,Rx,0,8,00,00,00,00,00,00,00,00,
793000,000004E8,false,Rx,0,8,02,00,00,00,00,00,00,00,
818000,00000114,false,Rx,0,8,08,60,00,01,00,00,00,00,
821000,00000169,false,Rx,0,8,40,00,00,00,00,00,00,00,
822000,0000016A,false,Rx,0,8,04,30,00,00,00,00,00,00,
824000,000001EB,false,Rx,0,8,01,00,00,00,00,00,00,00,
838000,000001E5,false,Rx,0,8,00,00,00,00,00,00,00,00,
851000,0000044D,false,Rx,0,8,40,02,00,00,00,00,FF,FF,
858000,00000114,false,Rx,0,8,08,60,00,01,00,00,00,00,
868000,00000197,false,Rx,0,8,0F,2F,44,00,00,00,00,00,
883000,00000485,false,Rx,0,8,03,03,00,00,00,00,00,00,
891000,00000157,false,Rx,0,8,C4,FF,00,00,00,00,00,00,
898000,00000114,false,Rx,0,8,08,60,00,01,00,00,00,00,
908000,00000197,false,Rx,0,8,0F,2F,44,00,00,00,00,00,
910000,00000506,false,Rx,0,8,00,00,02,3B,00,00,01,00,
914000,00000485,false,Rx,0,8,10,1F,03,54,00,69,00,6D,
918000,00000171,false,Rx,0,8,02,00,00,00,00,00,00,00,
920000,00000484,false,Rx,0,8,30,00,05,00,00,00,00,00,
922000,000001DF,false,Rx,0,8,00,00,00,00,00,20,A0,00,
928000,00000485,false,Rx,0,8,21,00,65,00,20,00,69,00,
929000,0000012F,false,Rx,0,8,52,13,2F,1B,09,07,03,CF,
931000,00000173,false,Rx,0,8,01,00,00,00,00,00,00,00,
938000,00000485,false,Rx,0,8,22,73,00,20,00,54,00,69,
940000,00000122,false,Rx,0,8,FF,F3,FF,FF,FC,00,00,00,
948000,00000485,false,Rx,0,8,23,00,63,00,6B,00,69,00,
949000,00000197,false,Rx,0,8,0F,2F,44,00,00,00,00,00,
951000,00000440,false,Rx,0,8,4D,02,00,00,00,00,FF,FF,
958000,00000485,false,Rx,0,8,24,6E,00,67,00,00,00,00,
968000,00000115,false,Rx,0,8,08,00,00,2D,00,00,00,00,
970000,0000012F,false,Rx,0,8,52,13,2F,1B,09,07,03,CF,
978000,00000114,false,Rx,0,8,08,60,00,01,00,00,00,00,
980000,00000123,false,Rx,0,8,00,00,00,00,00,00,00,00,
8000,0000012F,false,Rx,0,8,52,13,2F,1B,09,07,03,CF,
21000,00000169,false,Rx,0,8,40,00,00,00,00,00,00,00,
22000,0000016A,false,Rx,0,8,04,30,00,00,00,00,00,00,
24000,000001EB,false,Rx,0,8,01,00,00,00,00,00,00,00,
38000,000001E5,false,Rx,0,8,00,00,00,00,00,00,00,00,
50000,0000044D,false,Rx,0,8,40,02,00,00,00,00,FF,FF,
92000,00000157,false,Rx,0,8,C4,FF,00,00,00,00,00,00,
98000,0000012F,false,Rx,0,8,52,13,2F,1B,09,07,03,CF,
108000,00000506,false,Rx,0,8,00,00,02,3B,00,00,01,00,
118000,00000171,false,Rx,0,8,02,00,00,00,00,00,00,00,
121000,000001DF,false,Rx,0,8,00,00,00,00,00,20,A0,00,
128000,00000173,false,Rx,0,8,01,00,00,00,00,00,00,00,
138000,00000122,false,Rx,0,8,FF,F3,FF,FF,FC,00,00,00,
148000,00000440,false,Rx,0,8,4D,02,00,00,00,00,FF,FF,
169000,00000115,false,Rx,0,8,08,00,00,2D,00,00,00,00,
178000,00000114,false,Rx,0,8,08,60,00,01,00,00,00,00,
179000,00000123,false,Rx,0,8,00,00,00,00,00,00,00,00,
221000,00000169,false,Rx,0,8,40,00,00,00,00,00,00,00,
222000,0000016A,false,Rx,0,8,04,30,00,00,00,00,00,00,
223000,000001EB,false,Rx,0,8,01,00,00,00,00,00,00,00,
238000,000001E5,false,Rx,0,8,00,00,00,00,00,00,00,00,
241000,0000044D,false,Rx,0,8,40,02,00,00,00,00,FF,FF,
258000,00000197,false,Rx,0,8,0F,2F,44,00,00,00,00,00,
291000,00000157,false,Rx,0,8,C4,FF,00,00,00,00,00,00,
308000,00000506,false,Rx,0,8,00,00,02,3B,00,00,01,00,
318000,00000171,false,Rx,0,8,02,00,00,00,00,00,00,00,
321000,000001DF,false,Rx,0,8,00,00,00,00,00,20,A0,00,
328000,00000173,false,Rx,0,8,01,00,00,00,00,00,00,00,
338000,00000440,false,Rx,0,8,4D,02,00,00,00,00,FF,FF,
339000,00000122,false,Rx,0,8,FF,F3,FF,FF,FC,00,00,00,
368000,00000115,false,Rx,0,8,08,00,00,2D,00,00,00,00,
378000,00000114,false,Rx,0,8,08,60,00,01,00,00,00,00,
379000,00000123,false,Rx,0,8,00,00,00,00,00,00,00,00,
422000,00000169,false,Rx,0,8,40,00,00,00,00,00,00,00,
423000,0000016A,false,Rx,0,8,04,30,00,00,00,00,00,00,
424000,000001EB,false,Rx,0,8,01,00,00,00,00,00,00,00,
432000,0000044D,false,Rx,0,8,40,02,00,00,00,00,FF,FF,
438000,000001E5,false,Rx,0,8,00,00,00,00,00,00,00,00,
492000,00000157,false,Rx,0,8,C4,FF,00,00,00,00,00,00,
508000,00000506,false,Rx,0,8,00,00,02,3B,00,00,01,00,
518000,00000171,false,Rx,0,8,02,00,00,00,00,00,00,00,
521000,000001DF,false,Rx,0,8,00,00,00,00,00,20,A0,00,
528000,00000440,false,Rx,0,8,4D,02,00,00,00,00,FF,FF,
529000,00000173,false,Rx,0,8,01,00,00,00,00,00,00,00,
538000,00000122,false,Rx,0,8,FF,F3,FF,FF,FC,00,00,00,
568000,00000115,false,Rx,0,8,08,00,00,2D,00,00,00,00,
578000,00000114,false,Rx,0,8,08,60,00,01,00,00,00,00,
580000,00000123,false,Rx,0,8,00,00,00,00,00,00,00,00,
621000,0000044D,false,Rx,0,8,40,02,00,00,00,00,FF,FF,
622000,00000169,false,Rx,0,8,40,00,00,00,00,00,00,00,
624000,0000016A,false,Rx,0,8,04,30,00,00,00,00,00,00,
625000,000001EB,false,Rx,0,8,01,00,00,00,00,00,00,00,
638000,000001E5,false,Rx,0,8,00,00,00,00,00,00,00,00,
692000,00000157,false,Rx,0,8,C4,FF,00,00,00,00,00,00,
708000,00000506,false,Rx,0,8,00,00,02,3B,00,00,01,00,
718000,00000440,false,Rx,0,8,4D,02,00,00,00,00,FF,FF,
719000,00000171,false,Rx,0,8,02,00,00,00,00,00,00,00,
721000,000001DF,false,Rx,0,8,00,00,00,00,00,20,A0,00,
728000,00000173,false,Rx,0,8,01,00,00,00,00,00,00,00,
738000,00000122,false,Rx,0,8,FF,F3,FF,FF,FC,00,00,00,
768000,00000115,false,Rx,0,8,08,00,00,2D,00,00,00,00,
778000,00000114,false,Rx,0,8,08,60,00,01,00,00,00,00,
779000,00000123,false,Rx,0,8,00,00,00,00,00,00,00,00,
813000,0000044D,false,Rx,0,8,40,02,00,00,00,00,FF,FF,
821000,00000169,false,Rx,0,8,40,00,00,00,00,00,00,00,
823000,0000016A,false,Rx,0,8,04,30,00,00,00,00,00,00,
824000,000001EB,false,Rx,0,8,01,00,00,00,00,00,00,00,
838000,000001E5,false,Rx,0,8,00,00,00,00,00,00,00,00,
891000,00000157,false,Rx,0,8,C4,FF,00,00,00,00,00,00,
908000,00000440,false,Rx,0,8,4D,02,00,00,00,00,FF,FF,
909000,00000506,false,Rx,0,8,00,00,02,3B,00,00,01,00,
917000,00000171,false,Rx,0,8,02,00,00,00,00,00,00,00,
921000,000001DF,false,Rx,0,8,00,00,00,00,00,20,A0,00,
927000,00000173,false,Rx,0,8,01,00,00,00,00,00,00,00,
937000,00000122,false,Rx,0,8,FF,F3,FF,FF,FC,00,00,00,
958000,0000012F,false,Rx,0,8,52,13,2F,1C,09,07,03,CF,
968000,00000115,false,Rx,0,8,08,00,00,2D,00,00,00,00,
977000,00000114,false,Rx,0,8,08,60,00,01,00,00,00,00,
979000,00000123,false,Rx,0,8,00,00,00,00,00,00,00,00,
997000,0000012F,false,Rx,0,8,52,13,2F,1C,09,07,03,CF,
2000,0000044D,false,Rx,0,8,40,02,00,00,00,00,FF,FF,
21000,00000169,false,Rx,0,8,40,00,00,00,00,00,00,00,
23000,0000016A,false,Rx,0,8,04,30,00,00,00,00,00,00,
24000,000001EB,false,Rx,0,8,01,00,00,00,00,00,00,00,
38000,0000012F,false,Rx,0,8,52,13,2F,1C,09,07,03,CF,
39000,000001E5,false,Rx,0,8,00,00,00,00,00,00,00,00,
91000,00000157,false,Rx,0,8,C4,FF,00,00,00,00,00,00,
98000,00000440,false,Rx,0,8,4D,02,00,00,00,00,FF,FF,
99000,0000012F,false,Rx,0,8,52,13,2F,1C,09,07,03,CF,
108000,00000506,false,Rx,0,8,00,00,02,3B,00,00,01,00,
117000,00000171,false,Rx,0,8,02,00,00,00,00,00,00,00,
121000,000001DF,false,Rx,0,8,00,00,00,00,00,20,A0,00,
128000,00000173,false,Rx,0,8,01,00,00,00,00,00,00,00,
137000,00000122,false,Rx,0,8,FF,F3,FF,FF,FC,00,00,00,
168000,00000115,false,Rx,0,8,08,00,00,2D,00,00,00,00,
177000,00000114,false,Rx,0,8,08,60,00,01,00,00,00,00,
179000,00000123,false,Rx,0,8,00,00,00,00,00,00,00,00,
191000,0000044D,false,Rx,0,8,40,02,00,00,00,00,FF,FF,
208000,00000100,false,Rx,0,8,62,00,00,04,00,00,00,00,
221000,00000169,false,Rx,0,8,40,00,00,00,00,00,00,00,
222000,0000016A,false,Rx,0,8,04,30,00,00,00,00,00,00,
224000,000001EB,false,Rx,0,8,01,00,00,00,00,00,00,00,
238000,000001E5,false,Rx,0,8,00,00,00,00,00,00,00,00,
258000,00000197,false,Rx,0,8,0F,2F,44,00,00,00,00,00,
288000,00000440,false,Rx,0,8,4D,02,00,00,00,00,FF,FF,
291000,00000157,false,Rx,0,8,C4,FF,00,00,00,00,00,00,
308000,00000506,false,Rx,0,8,00,00,02,3B,00,00,01,00,
318000,00000171,false,Rx,0,8,02,00,00,00,00,00,00,00,
321000,000001DF,false,Rx,0,8,00,00,00,00,00,20,A0,00,
328000,00000173,false,Rx,0,8,01,00,00,00,00,00,00,00,
338000,00000122,false,Rx,0,8,FF,F3,FF,FF,FC,00,00,00,
368000,00000115,false,Rx,0,8,08,00,00,2D,00,00,00,00,
378000,00000114,false,Rx,0,8,08,60,00,01,00,00,00,00,
379000,00000123,false,Rx,0,8,00,00,00,00,00,00,00,00,
381000,0000044D,false,Rx,0,8,40,02,00,00,00,00,FF,FF,
421000,00000169,false,Rx,0,8,40,00,00,00,00,00,00,00,
423000,0000016A,false,Rx,0,8,04,30,00,00,00,00,00,00,
424000,000001EB,false,Rx,0,8,01,00,00,00,00,00,00,00,
438000,000001E5,false,Rx,0,8,00,00,00,00,00,00,00,00,
478000,00000440,false,Rx,0,8,4D,02,00,00,00,00,FF,FF,
491000,00000157,false,Rx,0,8,C4,FF,00,00,00,00,00,00,
508000,00000506,false,Rx,0,8,00,00,02,3B,00,00,01,00,
518000,00000171,false,Rx,0,8,02,00,00,00,00,00,00,00,
521000,000001DF,false,Rx,0,8,00,00,00,00,00,20,A0,00,
528000,00000173,false,Rx,0,8,01,00,00,00,00,00,00,00,
538000,00000122,false,Rx,0,8,FF,F3,FF,FF,FC,00,00,00,
568000,00000115,false,Rx,0,8,08,00,00,2D,00,00,00,00,
571000,0000044D,false,Rx,0,8,40,02,00,00,00,00,FF,FF,
578000,00000114,false,Rx,0,8,08,60,00,01,00,00,00,00,
579000,00000123,false,Rx,0,8,00,00,00,00,00,00,00,00,
622000,00000169,false,Rx,0,8,40,00,00,00,00,00,00,00,
623000,0000016A,false,Rx,0,8,04,30,00,00,00,00,00,00,
624000,000001EB,false,Rx,0,8,01,00,00,00,00,00,00,00,
638000,000001E5,false,Rx,0,8,00,00,00,00,00,00,00,00,
668000,00000440,false,Rx,0,8,4D,02,00,00,00,00,FF,FF,
691000,00000157,false,Rx,0,8,C4,FF,00,00,00,00,00,00,
707000,00000506,false,Rx,0,8,00,00,02,3B,00,00,01,00,
718000,00000171,false,Rx,0,8,02,00,00,00,00,00,00,00,
721000,000001DF,false,Rx,0,8,00,00,00,00,00,20,A0,00,
728000,00000173,false,Rx,0,8,01,00,00,00,00,00,00,00,
738000,00000122,false,Rx,0,8,FF,F3,FF,FF,FC,00,00,00,
763000,0000044D,false,Rx,0,8,40,02,00,00,00,00,FF,FF,
768000,00000115,false,Rx,0,8,08,00,00,2D,00,00,00,00,
778000,00000114,false,Rx,0,8,08,60,00,01,00,00,00,00,
779000,00000123,false,Rx,0,8,00,00,00,00,00,00,00,00,
821000,00000169,false,Rx,0,8,40,00,00,00,00,00,00,00,
822000,0000016A,false,Rx,0,8,04,30,00,00,00,00,00,00,
823000,000001EB,false,Rx,0,8,01,00,00,00,00,00,00,00,
837000,000001E5,false,Rx,0,8,00,00,00,00,00,00,00,00,
857000,00000440,false,Rx,0,8,4D,02,00,00,00,00,FF,FF,
891000,00000157,false,Rx,0,8,C4,FF,00,00,00,00,00,00,
908000,00000506,false,Rx,0,8,00,00,02,3B,00,00,01,00,
918000,00000171,false,Rx,0,8,02,00,00,00,00,00,00,00,
921000,000001DF,false,Rx,0,8,00,00,00,00,00,20,A0,00,
928000,00000173,false,Rx,0,8,01,00,00,00,00,00,00,00,
938000,00000122,false,Rx,0,8,FF,F3,FF,FF,FC,00,00,00,
951000,0000044D,false,Rx,0,8,40,02,00,00,00,00,FF,FF,
958000,0000012F,false,Rx,0,8,52,13,2F,1D,09,07,03,CF,
968000,00000115,false,Rx,0,8,08,00,00,2D,00,00,00,00,
978000,00000114,false,Rx,0,8,08,60,00,01,00,00,00,00,
979000,00000123,false,Rx,0,8,00,00,00,00,00,00,00,00,
998000,0000012F,false,Rx,0,8,52,13,2F,1D,09,07,03,CF,
21000,00000169,false,Rx,0,8,40,00,00,00,00,00,00,00,
23000,0000016A,false,Rx,0,8,04,30,00,00,00,00,00,00,
24000,000001EB,false,Rx,0,8,01,00,00,00,00,00,00,00,
38000,0000012F,false,Rx,0,8,52,13,2F,1D,09,07,03,CF,
39000,000001E5,false,Rx,0,8,00,00,00,00,00,00,00,00,
48000,00000440,false,Rx,0,8,4D,02,00,00,00,00,FF,FF,
91000,00000157,false,Rx,0,8,C4,FF,00,00,00,00,00,00,
98000,0000012F,false,Rx,0,8,52,13,2F,1D,09,07,03,CF,
108000,00000506,false,Rx,0,8,00,00,02,3B,00,00,01,00,
118000,00000171,false,Rx,0,8,02,00,00,00,00,00,00,00,
122000,000001DF,false,Rx,0,8,00,00,00,00,00,20,A0,00,
128000,00000173,false,Rx,0,8,01,00,00,00,00,00,00,00,
138000,00000122,false,Rx,0,8,FF,F3,FF,FF,FC,00,00,00,
141000,0000044D,false,Rx,0,8,40,02,00,00,00,00,FF,FF,
168000,00000115,false,Rx,0,8,08,00,00,2D,00,00,00,00,
178000,00000114,false,Rx,0,8,08,60,00,01,00,00,00,00,
179000,00000123,false,Rx,0,8,00,00,00,00,00,00,00,00,
221000,00000169,false,Rx,0,8,40,00,00,00,00,00,00,00,
222000,0000016A,false,Rx,0,8,04,30,00,00,00,00,00,00,
224000,000001EB,false,Rx,0,8,01,00,00,00,00,00,00,00,
237000,00000440,false,Rx,0,8,4D,02,00,00,00,00,FF,FF,
239000,000001E5,false,Rx,0,8,00,00,00,00,00,00,00,00,
258000,00000197,false,Rx,0,8,0F,2F,44,00,00,00,00,00,
292000,00000157,false,Rx,0,8,C4,FF,00,00,00,00,00,00,
308000,00000506,false,Rx,0,8,00,00,02,3B,00,00,01,00,
318000,00000171,false,Rx,0,8,02,00,00,00,00,00,00,00,
321000,000001DF,false,Rx,0,8,00,00,00,00,00,20,A0,00,
328000,00000173,false,Rx,0,8,01,00,00,00,00,00,00,00,
331000,0000044D,false,Rx,0,8,40,02,00,00,00,00,FF,FF,
338000,00000122,false,Rx,0,8,FF,F3,FF,FF,FC,00,00,00,
368000,00000115,false,Rx,0,8,08,00,00,2D,00,00,00,00,
378000,00000114,false,Rx,0,8,08,60,00,01,00,00,00,00,
379000,00000123,false,Rx,0,8,00,00,00,00,00,00,00,00,
421000,00000169,false,Rx,0,8,40,00,00,00,00,00,00,00,
423000,0000016A,false,Rx,0,8,04,30,00,00,00,00,00,00,
424000,000001EB,false,Rx,0,8,01,00,00,00,00,00,00,00,
428000,00000440,false,Rx,0,8,4D,02,00,00,00,00,FF,FF,
438000,000001E5,false,Rx,0,8,00,00,00,00,00,00,00,00,
491000,00000157,false,Rx,0,8,C4,FF,00,00,00,00,00,00,
508000,00000506,false,Rx,0,8,00,00,02,3B,00,00,01,00,
518000,00000171,false,Rx,0,8,02,00,00,00,00,00,00,00,
521000,0000044D,false,Rx,0,8,40,02,00,00,00,00,FF,FF,
522000,000001DF,false,Rx,0,8,00,00,00,00,00,20,A0,00,
527000,00000173,false,Rx,0,8,01,00,00,00,00,00,00,00,
538000,00000122,false,Rx,0,8,FF,F3,FF,FF,FC,00,00,00,
568000,00000115,false,Rx,0,8,08,00,00,2D,00,00,00,00,
578000,00000114,false,Rx,0,8,08,60,00,01,00,00,00,00,
579000,00000123,false,Rx,0,8,00,00,00,00,00,00,00,00,
618000,00000440,false,Rx,0,8,4D,02,00,00,00,00,FF,FF,
621000,00000169,false,Rx,0,8,40,00,00,00,00,00,00,00,
623000,0000016A,false,Rx,0,8,04,30,00,00,00,00,00,00,
623000,000001EB,false,Rx,0,8,01,00,00,00,00,00,00,00,
638000,000001E5,false,Rx,0,8,00,00,00,00,00,00,00,00,
691000,00000157,false,Rx,0,8,C4,FF,00,00,00,00,00,00,
708000,00000506,false,Rx,0,8,00,00,02,3B,00,00,01,00,
713000,0000044D,false,Rx,0,8,40,02,00,00,00,00,FF,FF,
718000,00000171,false,Rx,0,8,02,00,00,00,00,00,00,00,
721000,000001DF,false,Rx,0,8,00,00,00,00,00,20,A0,00,
728000,00000173,false,Rx,0,8,01,00,00,00,00,00,00,00,
738000,00000122,false,Rx,0,8,FF,F3,FF,FF,FC,00,00,00,
768000,00000115,false,Rx,0,8,08,00,00,2D,00,00,00,00,
778000,00000114,false,Rx,0,8,08,60,00,01,00,00,00,00,
780000,00000123,false,Rx,0,8,00,00,00,00,00,00,00,00,
808000,00000440,false,Rx,0,8,4D,02,00,00,00,00,FF,FF,
822000,00000169,false,Rx,0,8,40,00,00,00,00,00,00,00,
823000,0000016A,false,Rx,0,8,04,30,00,00,00,00,00,00,
824000,000001EB,false,Rx,0,8,01,00,00,00,00,00,00,00,
837000,000001E5,false,Rx,0,8,00,00,00,00,00,00,00,00,
891000,00000157,false,Rx,0,8,C4,FF,00,00,00,00,00,00,
901000,0000044D,false,Rx,0,8,40,02,00,00,00,00,FF,FF,
908000,00000506,false,Rx,0,8,00,00,02,3B,00,00,01,00,
918000,00000171,false,Rx,0,8,02,00,00,00,00,00,00,00,
922000,000001DF,false,Rx,0,8,00,00,00,00,00,20,A0,00,
928000,00000173,false,Rx,0,8,01,00,00,00,00,00,00,00,
938000,00000122,false,Rx,0,8,FF,F3,FF,FF,FC,00,00,00,
958000,0000012F,false,Rx,0,8,52,13,2F,1E,09,07,03,CF,
968000,00000115,false,Rx,0,8,08,00,00,2D,00,00,00,00,
978000,00000114,false,Rx,0,8,08,60,00,01,00,00,00,00,
980000,00000123,false,Rx,0,8,00,00,00,00,00,00,00,00,
998000,00000440,false,Rx,0,8,4D,02,00,00,00,00,FF,FF,
999000,0000012F,false,Rx,0,8,52,13,2F,1E,09,07,03,CF,
21000,00000169,false,Rx,0,8,40,00,00,00,00,00,00,00,
22000,0000016A,false,Rx,0,8,04,30,00,00,00,00,00,00,
24000,000001EB,false,Rx,0,8,01,00,00,00,00,00,00,00,
38000,0000012F,false,Rx,0,8,52,13,2F,1E,09,07,03,CF,
39000,000001E5,false,Rx,0,8,00,00,00,00,00,00,00,00,
91000,0000044D,false,Rx,0,8,40,02,00,00,00,00,FF,FF,
93000,00000157,false,Rx,0,8,C4,FF,00,00,00,00,00,00,
98000,0000012F,false,Rx,0,8,52,13,2F,1E,09,07,03,CF,
108000,00000506,false,Rx,0,8,00,00,02,3B,00,00,01,00,
118000,00000171,false,Rx,0,8,02,00,00,00,00,00,00,00,
121000,000001DF,false,Rx,0,8,00,00,00,00,00,20,A0,00,
128000,00000173,false,Rx,0,8,01,00,00,00,00,00,00,00,
138000,00000122,false,Rx,0,8,FF,F3,FF,FF,FC,00,00,00,
168000,00000115,false,Rx,0,8,08,00,00,2D,00,00,00,00,
178000,00000114,false,Rx,0,8,08,60,00,01,00,00,00,00,
179000,00000123,false,Rx,0,8,00,00,00,00,00,00,00,00,
188000,00000440,false,Rx,0,8,4D,02,00,00,00,00,FF,FF,
208000,00000100,false,Rx,0,8,62,00,00,04,00,00,00,00,
221000,00000169,false,Rx,0,8,40,00,00,00,00,00,00,00,
222000,0000016A,false,Rx,0,8,04,30,00,00,00,00,00,00,
224000,000001EB,false,Rx,0,8,01,00,00,00,00,00,00,00,
237000,000001E5,false,Rx,0,8,00,00,00,00,00,00,00,00,
258000,00000197,false,Rx,0,8,0F,2F,44,00,00,00,00,00,
281000,0000044D,false,Rx,0,8,40,02,00,00,00,00,FF,FF,
291000,00000157,false,Rx,0,8,C4,FF,00,00,00,00,00,00,
308000,00000506,false,Rx,0,8,00,00,02,3B,00,00,01,00,
318000,00000171,false,Rx,0,8,02,00,00,00,00,00,00,00,
321000,000001DF,false,Rx,0,8,00,00,00,00,00,20,A0,00,
328000,00000173,false,Rx,0,8,01,00,00,00,00,00,00,00,
338000,00000122,false,Rx,0,8,FF,F3,FF,FF,FC,00,00,00,
368000,00000115,false,Rx,0,8,08,00,00,2D,00,00,00,00,
378000,00000440,false,Rx,0,8,4D,02,00,00,00,00,FF,FF,
379000,00000114,false,Rx,0,8,08,60,00,01,00,00,00,00,
381000,00000123,false,Rx,0,8,00,00,00,00,00,00,00,00,
421000,00000169,false,Rx,0,8,40,00,00,00,00,00,00,00,
422000,0000016A,false,Rx,0,8,04,30,00,00,00,00,00,00,
423000,000001EB,false,Rx,0,8,01,00,00,00,00,00,00,00,
438000,000001E5,false,Rx,0,8,00,00,00,00,00,00,00,00,
471000,0000044D,false,Rx,0,8,40,02,00,00,00,00,FF,FF,
491000,00000157,false,Rx,0,8,C4,FF,00,00,00,00,00,00,
508000,00000506,false,Rx,0,8,00,00,02,3B,00,00,01,00,
518000,00000171,false,Rx,0,8,02,00,00,00,00,00,00,00,
522000,000001DF,false,Rx,0,8,00,00,00,00,00,20,A0,00,
528000,00000173,false,Rx,0,8,01,00,00,00,00,00,00,00,
538000,00000122,false,Rx,0,8,FF,F3,FF,FF,FC,00,00,00,
568000,00000440,false,Rx,0,8,4D,02,00,00,00,00,FF,FF,
569000,00000115,false,Rx,0,8,08,00,00,2D,00,00,00,00,
578000,00000114,false,Rx,0,8,08,60,00,01,00,00,00,00,
579000,00000123,false,Rx,0,8,00,00,00,00,00,00,00,00,
622000,00000169,false,Rx,0,8,40,00,00,00,00,00,00,00,
623000,0000016A,false,Rx,0,8,04,30,00,00,00,00,00,00,
624000,000001EB,false,Rx,0,8,01,00,00,00,00,00,00,00,
638000,000001E5,false,Rx,0,8,00,00,00,00,00,00,00,00,
663000,0000044D,false,Rx,0,8,40,02,00,00,00,00,FF,FF,
691000,00000157,false,Rx,0,8,C4,FF,00,00,00,00,00,00,
707000,00000506,false,Rx,0,8,00,00,02,3B,00,00,01,00,
717000,00000171,false,Rx,0,8,02,00,00,00,00,00,00,00,
721000,000001DF,false,Rx,0,8,00,00,00,00,00,20,A0,00,
728000,00000173,false,Rx,0,8,01,00,00,00,00,00,00,00,
738000,00000122,false,Rx,0,8,FF,F3,FF,FF,FC,00,00,00,
758000,00000440,false,Rx,0,8,4D,02,00,00,00,00,FF,FF,
768000,00000115,false,Rx,0,8,08,00,00,2D,00,00,00,00,
777000,00000114,false,Rx,0,8,08,60,00,01,00,00,00,00,
779000,00000123,false,Rx,0,8,00,00,00,00,00,00,00,00,
821000,00000169,false,Rx,0,8,40,00,00,00,00,00,00,00,
823000,0000016A,false,Rx,0,8,04,30,00,00,00,00,00,00,
824000,000001EB,false,Rx,0,8,01,00,00,00,00,00,00,00,
838000,000001E5,false,Rx,0,8,00,00,00,00,00,00,00,00,
851000,0000044D,false,Rx,0,8,40,02,00,00,00,00,FF,FF,
891000,00000157,false,Rx,0,8,C4,FF,00,00,00,00,00,00,
908000,00000506,false,Rx,0,8,00,00,02,3B,00,00,01,00,
918000,00000171,false,Rx,0,8,02,00,00,00,00,00,00,00,
921000,000001DF,false,Rx,0,8,00,00,00,00,00,20,A0,00,
928000,00000173,false,Rx,0,8,01,00,00,00,00,00,00,00,
938000,00000122,false,Rx,0,8,FF,F3,FF,FF,FC,00,00,00,
948000,00000440,false,Rx,0,8,4D,02,00,00,00,00,FF,FF,
958000,0000012F,false,Rx,0,8,52,13,2F,1F,09,07,03,CF,
968000,00000115,false,Rx,0,8,08,00,00,2D,00,00,00,00,
978000,00000114,false,Rx,0,8,08,60,00,01,00,00,00,00,
979000,00000123,false,Rx,0,8,00,00,00,00,00,00,00,00,
998000,0000012F,false,Rx,0,8,52,13,2F,1F,09,07,03,CF,
21000,00000169,false,Rx,0,8,40,00,00,00,00,00,00,00,
22000,0000016A,false,Rx,0,8,04,30,00,00,00,00,00,00,
24000,000001EB,false,Rx,0,8,01,00,00,00,00,00,00,00,
38000,0000012F,false,Rx,0,8,52,13,2F,1F,09,07,03,CF,
39000,000001E5,false,Rx,0,8,00,00,00,00,00,00,00,00,
42000,0000044D,false,Rx,0,8,40,02,00,00,00,00,FF,FF,
92000,00000157,false,Rx,0,8,C4,FF,00,00,00,00,00,00,
98000,0000012F,false,Rx,0,8,52,13,2F,1F,09,07,03,CF,
108000,00000506,false,Rx,0,8,00,00,02,3B,00,00,01,00,
118000,00000171,false,Rx,0,8,02,00,00,00,00,00,00,00,
121000,000001DF,false,Rx,0,8,00,00,00,00,00,20,A0,00,
128000,00000173,false,Rx,0,8,01,00,00,00,00,00,00,00,
138000,00000440,false,Rx,0,8,4D,02,00,00,00,00,FF,FF,
139000,00000122,false,Rx,0,8,FF,F3,FF,FF,FC,00,00,00,
168000,00000115,false,Rx,0,8,08,00,00,2D,00,00,00,00,
178000,00000114,false,Rx,0,8,08,60,00,01,00,00,00,00,
179000,00000123,false,Rx,0,8,00,00,00,00,00,00,00,00,
222000,00000169,false,Rx,0,8,40,00,00,00,00,00,00,00,
223000,0000016A,false,Rx,0,8,04,30,00,00,00,00,00,00,
224000,000001EB,false,Rx,0,8,01,00,00,00,00,00,00,00,
232000,0000044D,false,Rx,0,8,40,02,00,00,00,00,FF,FF,
238000,000001E5,false,Rx,0,8,00,00,00,00,00,00,00,00,
257000,00000197,false,Rx,0,8,0F,2F,44,00,00,00,00,00,
291000,00000157,false,Rx,0,8,C4,FF,00,00,00,00,00,00,
